date Wed Aug 26 19:17:32.868 2026
base hex  timestamps absolute
internal events logged
Begin Triggerblock Thu Jan 01 00:00:00.0 1970
 0.000000 Start of measurement
 0.000000 1  C0              Rx   d 8 1D 00 10 2D 00 00 00 00
 0.000000 1  1B0             Rx   d 4 00 80 00 18
 0.000000 1  D0              Rx   d 8 CC 47 F4 C1 7C 44 1F 01
 0.000000 1  A0              Rx   d 8 13 27 4D 46 FC 7C FA 7C
 0.010000 1  C0              Rx   d 8 00 00 20 20 00 00 00 00
 0.010000 1  1B0             Rx   d 4 00 80 FE 27
 0.020000 1  C0              Rx   d 8 00 00 30 30 00 00 00 00
 0.020000 1  1B0             Rx   d 4 01 80 0D 38
 0.020000 1  D0              Rx   d 8 D1 07 F4 11 7D 44 1F 02
 0.020000 1  A0              Rx   d 8 07 27 4E 46 03 7D 07 7D
 0.030000 1  C0              Rx   d 8 4B 00 40 8B 00 00 00 00
 0.030000 1  1B0             Rx   d 4 00 80 EF 47
 0.040000 1  C0              Rx   d 8 27 00 50 77 00 00 00 00
 0.040000 1  1B0             Rx   d 4 00 80 00 58
 0.040000 1  D0              Rx   d 8 D0 C7 F3 D1 7C 44 1F 03
 0.040000 1  A0              Rx   d 8 13 27 44 46 02 7D 01 7D
 0.050000 1  C0              Rx   d 8 00 00 60 60 00 00 00 00
 0.050000 1  1B0             Rx   d 4 FD 7F E7 67
 0.060000 1  C0              Rx   d 8 00 00 70 70 00 00 00 00
 0.060000 1  1B0             Rx   d 4 FF 7F 14 78
 0.060000 1  D0              Rx   d 8 D0 07 F4 21 7D 40 1F 04
 0.060000 1  A0              Rx   d 8 10 27 4D 46 FE 7C 04 7D
 0.070000 1  C0              Rx   d 8 00 00 80 80 00 00 00 00
 0.070000 1  1B0             Rx   d 4 00 80 0C 88
 0.080000 1  C0              Rx   d 8 2F 00 90 BF 00 00 00 00
 0.080000 1  1B0             Rx   d 4 FF 7F F4 97
 0.080000 1  D0              Rx   d 8 D0 07 F4 E1 7C 40 1F 05
 0.080000 1  A0              Rx   d 8 0D 27 4A 46 05 7D F5 7C
 0.090000 1  C0              Rx   d 8 12 00 A0 B2 00 00 00 00
 0.090000 1  1B0             Rx   d 4 00 80 07 A8
 0.100000 1  C0              Rx   d 8 00 00 B0 B0 00 00 00 00
 0.100000 1  1B0             Rx   d 4 FF 7F F9 B7
 0.100000 1  D0              Rx   d 8 D0 47 F4 F1 7C 40 1F 06
 0.100000 1  A0              Rx   d 8 0F 27 5D 46 FB 7C FC 7C
 0.110000 1  C0              Rx   d 8 19 00 C0 D9 00 00 00 00
 0.110000 1  1B0             Rx   d 4 01 80 0D C8
 0.120000 1  C0              Rx   d 8 13 00 D0 E3 00 00 00 00
 0.120000 1  1B0             Rx   d 4 00 80 F5 D7
 0.120000 1  D0              Rx   d 8 CF 87 F4 11 7D 3C 1F 07
 0.120000 1  A0              Rx   d 8 17 27 3F 46 08 7D 04 7D
 0.130000 1  C0              Rx   d 8 1E 00 E0 FE 00 00 00 00
 0.130000 1  1B0             Rx   d 4 00 80 01 E8
 0.140000 1  C0              Rx   d 8 2C 00 F0 1C 00 00 00 00
 0.140000 1  1B0             Rx   d 4 02 80 1C F8
 0.140000 1  D0              Rx   d 8 D1 07 F4 31 7D 48 1F 08
 0.140000 1  A0              Rx   d 8 13 27 58 46 FA 7C 0A 7D
 0.150000 1  C0              Rx   d 8 0E 00 00 0E 00 00 00 00
 0.150000 1  1B0             Rx   d 4 01 80 EF 07
 0.160000 1  C0              Rx   d 8 00 00 10 10 00 00 00 00
 0.160000 1  1B0             Rx   d 4 04 80 1E 18
 0.160000 1  D0              Rx   d 8 CD 47 F4 C1 7C 38 1F 09
 0.160000 1  A0              Rx   d 8 10 27 47 46 03 7D F5 7C
 0.170000 1  C0              Rx   d 8 05 00 20 25 00 00 00 00
 0.170000 1  1B0             Rx   d 4 FF 7F CF 27
 0.180000 1  C0              Rx   d 8 00 00 30 30 00 00 00 00
 0.180000 1  1B0             Rx   d 4 01 80 11 38
 0.180000 1  D0              Rx   d 8 D1 47 F4 11 7D 38 1F 0A
 0.180000 1  A0              Rx   d 8 10 27 51 46 05 7D 00 7D
 0.190000 1  C0              Rx   d 8 00 00 40 40 00 00 00 00
 0.190000 1  1B0             Rx   d 4 FE 7F E7 47
 0.200000 1  C0              Rx   d 8 00 00 50 50 00 00 00 00
 0.200000 1  1B0             Rx   d 4 01 80 19 58
 0.200000 1  D0              Rx   d 8 CF 87 F4 21 7D 38 1F 0B
 0.200000 1  A0              Rx   d 8 18 27 58 46 01 7D 07 7D
 0.210000 1  C0              Rx   d 8 3C 00 60 9C 00 00 00 00
 0.210000 1  1B0             Rx   d 4 00 80 F9 67
 0.220000 1  C0              Rx   d 8 15 00 70 85 00 00 00 00
 0.220000 1  1B0             Rx   d 4 FF 7F FA 77
 0.220000 1  D0              Rx   d 8 D0 C7 F3 11 7D 44 1F 0C
 0.220000 1  A0              Rx   d 8 18 27 3C 46 FF 7C 01 7D
 0.230000 1  C0              Rx   d 8 00 00 80 80 00 00 00 00
 0.230000 1  1B0             Rx   d 4 01 80 16 88
 0.240000 1  C0              Rx   d 8 1E 00 90 AE 00 00 00 00
 0.240000 1  1B0             Rx   d 4 00 80 EE 97
 0.240000 1  D0              Rx   d 8 D0 87 F3 11 7D 38 1F 0D
 0.240000 1  A0              Rx   d 8 07 27 4D 46 FB 7C F7 7C
 0.250000 1  C0              Rx   d 8 00 00 A0 A0 00 00 00 00
 0.250000 1  1B0             Rx   d 4 FE 7F EB A7
 0.260000 1  C0              Rx   d 8 27 00 B0 D7 00 00 00 00
 0.260000 1  1B0             Rx   d 4 FF 7F 13 B8
 0.260000 1  D0              Rx   d 8 D1 47 F4 D1 7C 40 1F 0E
 0.260000 1  A0              Rx   d 8 17 27 39 46 03 7D FA 7C
 0.270000 1  C0              Rx   d 8 0A 00 C0 CA 00 00 00 00
 0.270000 1  1B0             Rx   d 4 00 80 08 C8
 0.280000 1  C0              Rx   d 8 25 00 D0 F5 00 00 00 00
 0.280000 1  1B0             Rx   d 4 FE 7F ED D7
 0.280000 1  D0              Rx   d 8 CE 47 F4 21 7D 44 1F 0F
 0.280000 1  A0              Rx   d 8 17 27 46 46 FA 7C 02 7D
 0.290000 1  C0              Rx   d 8 00 00 E0 E0 00 00 00 00
 0.290000 1  1B0             Rx   d 4 00 80 0C E8
 0.300000 1  C0              Rx   d 8 0E 00 F0 FE 00 00 00 00
 0.300000 1  1B0             Rx   d 4 00 80 08 F8
 0.300000 1  D0              Rx   d 8 CF 07 F4 21 7D 40 1F 00
 0.300000 1  A0              Rx   d 8 11 27 5D 46 FC 7C 10 7D
 0.310000 1  C0              Rx   d 8 00 00 00 00 00 00 00 00
 0.310000 1  1B0             Rx   d 4 00 80 FF 07
 0.320000 1  C0              Rx   d 8 00 00 10 10 00 00 00 00
 0.320000 1  1B0             Rx   d 4 FF 7F F1 17
 0.320000 1  D0              Rx   d 8 D1 07 F4 11 7D 3C 1F 01
 0.320000 1  A0              Rx   d 8 13 27 5C 46 F4 7C 05 7D
 0.330000 1  C0              Rx   d 8 00 00 20 20 00 00 00 00
 0.330000 1  1B0             Rx   d 4 FF 7F 07 28
 0.340000 1  C0              Rx   d 8 1F 00 30 4F 00 00 00 00
 0.340000 1  1B0             Rx   d 4 FF 7F FF 37
 0.340000 1  D0              Rx   d 8 D0 87 F4 31 7D 44 1F 02
 0.340000 1  A0              Rx   d 8 0E 27 5E 46 FE 7C 00 7D
 0.350000 1  C0              Rx   d 8 00 00 40 40 00 00 00 00
 0.350000 1  1B0             Rx   d 4 FF 7F F7 47
 0.360000 1  C0              Rx   d 8 00 00 50 50 00 00 00 00
 0.360000 1  1B0             Rx   d 4 FF 7F 00 58
 0.360000 1  D0              Rx   d 8 D1 47 F4 E1 7C 50 1F 03
 0.360000 1  A0              Rx   d 8 17 27 64 46 09 7D 04 7D
 0.370000 1  C0              Rx   d 8 0C 00 60 6C 00 00 00 00
 0.370000 1  1B0             Rx   d 4 02 80 1E 68
 0.380000 1  C0              Rx   d 8 2F 00 70 9F 00 00 00 00
 0.380000 1  1B0             Rx   d 4 FE 7F DF 77
 0.380000 1  D0              Rx   d 8 D2 07 F4 11 7D 3C 1F 04
 0.380000 1  A0              Rx   d 8 11 27 4F 46 FC 7C 05 7D
 0.390000 1  C0              Rx   d 8 4D 00 80 CD 00 00 00 00
 0.390000 1  1B0             Rx   d 4 FF 7F 0B 88
 0.400000 1  C0              Rx   d 8 19 00 90 A9 00 00 00 00
 0.400000 1  1B0             Rx   d 4 02 80 1B 98
 0.400000 1  D0              Rx   d 8 CF C7 F4 F1 7C 40 1F 05
 0.400000 1  A0              Rx   d 8 10 27 41 46 05 7D 09 7D
 0.410000 1  C0              Rx   d 8 18 00 A0 B8 00 00 00 00
 0.410000 1  1B0             Rx   d 4 01 80 F2 A7
 0.420000 1  C0              Rx   d 8 4D 00 B0 FD 00 00 00 00
 0.420000 1  1B0             Rx   d 4 01 80 00 B8
 0.420000 1  D0              Rx   d 8 D0 C7 F3 F1 7C 3C 1F 06
 0.420000 1  A0              Rx   d 8 0F 27 54 46 01 7D 03 7D
 0.430000 1  C0              Rx   d 8 00 00 C0 C0 00 00 00 00
 0.430000 1  1B0             Rx   d 4 01 80 06 C8
 0.440000 1  C0              Rx   d 8 00 00 D0 D0 00 00 00 00
 0.440000 1  1B0             Rx   d 4 00 80 F6 D7
 0.440000 1  D0              Rx   d 8 D1 47 F4 E1 7C 44 1F 07
 0.440000 1  A0              Rx   d 8 0B 27 45 46 F6 7C 06 7D
 0.450000 1  C0              Rx   d 8 12 00 E0 F2 00 00 00 00
 0.450000 1  1B0             Rx   d 4 FF 7F F2 E7
 0.460000 1  C0              Rx   d 8 2B 00 F0 1B 00 00 00 00
 0.460000 1  1B0             Rx   d 4 01 80 13 F8
 0.460000 1  D0              Rx   d 8 D0 47 F4 F1 7C 48 1F 08
 0.460000 1  A0              Rx   d 8 0E 27 4E 46 FE 7C 05 7D
 0.470000 1  C0              Rx   d 8 00 00 00 00 00 00 00 00
 0.470000 1  1B0             Rx   d 4 FF 7F F3 07
 0.480000 1  C0              Rx   d 8 00 00 10 10 00 00 00 00
 0.480000 1  1B0             Rx   d 4 00 80 06 18
 0.480000 1  D0              Rx   d 8 D0 07 F4 C1 7C 40 1F 09
 0.480000 1  A0              Rx   d 8 02 27 55 46 03 7D FF 7C
 0.490000 1  C0              Rx   d 8 24 00 20 44 00 00 00 00
 0.490000 1  1B0             Rx   d 4 01 80 0D 28
 0.500000 1  C0              Rx   d 8 0A 00 30 3A 00 00 00 00
 0.500000 1  1B0             Rx   d 4 01 80 FB 37
 0.500000 1  D0              Rx   d 8 CE 87 F4 E1 7C 40 1F 0A
 0.500000 1  A0              Rx   d 8 0F 27 3C 46 FF 7C F8 7C
 0.510000 1  C0              Rx   d 8 00 00 40 40 00 00 00 00
 0.510000 1  1B0             Rx   d 4 FE 7F E9 47
 0.520000 1  C0              Rx   d 8 37 00 50 87 00 00 00 00
 0.520000 1  1B0             Rx   d 4 01 80 1A 58
 0.520000 1  D0              Rx   d 8 D1 47 F4 E1 7C 40 1F 0B
 0.520000 1  A0              Rx   d 8 0F 27 48 46 FE 7C 0D 7D
 0.530000 1  C0              Rx   d 8 2D 00 60 8D 00 00 00 00
 0.530000 1  1B0             Rx   d 4 05 80 28 68
 0.540000 1  C0              Rx   d 8 00 00 70 70 00 00 00 00
 0.540000 1  1B0             Rx   d 4 00 80 D2 77
 0.540000 1  D0              Rx   d 8 D1 47 F4 01 7D 3C 1F 0C
 0.540000 1  A0              Rx   d 8 0E 27 4C 46 00 7D FD 7C
 0.550000 1  C0              Rx   d 8 00 00 80 80 00 00 00 00
 0.550000 1  1B0             Rx   d 4 FD 7F E3 87
 0.560000 1  C0              Rx   d 8 11 00 90 A1 00 00 00 00
 0.560000 1  1B0             Rx   d 4 00 80 1A 98
 0.560000 1  D0              Rx   d 8 D0 47 F3 01 7D 40 1F 0D
 0.560000 1  A0              Rx   d 8 02 27 65 46 03 7D F7 7C
 0.570000 1  C0              Rx   d 8 00 00 A0 A0 00 00 00 00
 0.570000 1  1B0             Rx   d 4 FF 7F F2 A7
 0.580000 1  C0              Rx   d 8 00 00 B0 B0 00 00 00 00
 0.580000 1  1B0             Rx   d 4 02 80 1F B8
 0.580000 1  D0              Rx   d 8 D4 47 F4 21 7D 34 1F 0E
 0.580000 1  A0              Rx   d 8 15 27 4C 46 FA 7C FB 7C
 0.590000 1  C0              Rx   d 8 15 00 C0 D5 00 00 00 00
 0.590000 1  1B0             Rx   d 4 00 80 F1 C7
 0.600000 1  C0              Rx   d 8 00 00 D0 D0 00 00 00 00
 0.600000 1  1B0             Rx   d 4 00 80 00 D8
 0.600000 1  D0              Rx   d 8 D3 47 F4 D1 7C 38 1F 0F
 0.600000 1  A0              Rx   d 8 10 27 5A 46 00 7D 00 7D
 0.610000 1  C0              Rx   d 8 00 00 E0 E0 00 00 00 00
 0.610000 1  1B0             Rx   d 4 02 80 16 E8
 0.620000 1  C0              Rx   d 8 0A 00 F0 FA 00 00 00 00
 0.620000 1  1B0             Rx   d 4 00 80 EB F7
 0.620000 1  D0              Rx   d 8 D3 07 F4 F1 7C 40 1F 00
 0.620000 1  A0              Rx   d 8 13 27 46 46 01 7D F4 7C
 0.630000 1  C0              Rx   d 8 00 00 00 00 00 00 00 00
 0.630000 1  1B0             Rx   d 4 01 80 09 08
 0.640000 1  C0              Rx   d 8 00 00 10 10 00 00 00 00
 0.640000 1  1B0             Rx   d 4 FD 7F DA 17
 0.640000 1  D0              Rx   d 8 CF C7 F4 01 7D 38 1F 01
 0.640000 1  A0              Rx   d 8 0D 27 43 46 F0 7C FD 7C
 0.650000 1  C0              Rx   d 8 14 00 20 34 00 00 00 00
 0.650000 1  1B0             Rx   d 4 FF 7F 11 28
 0.660000 1  C0              Rx   d 8 2A 00 30 5A 00 00 00 00
 0.660000 1  1B0             Rx   d 4 03 80 24 38
 0.660000 1  D0              Rx   d 8 CF 87 F4 11 7D 3C 1F 02
 0.660000 1  A0              Rx   d 8 16 27 49 46 01 7D 00 7D
 0.670000 1  C0              Rx   d 8 02 00 40 42 00 00 00 00
 0.670000 1  1B0             Rx   d 4 01 80 ED 47
 0.680000 1  C0              Rx   d 8 10 00 50 60 00 00 00 00
 0.680000 1  1B0             Rx   d 4 FE 7F E1 57
 0.680000 1  D0              Rx   d 8 D0 C7 F3 01 7D 44 1F 03
 0.680000 1  A0              Rx   d 8 0D 27 44 46 05 7D 02 7D
 0.690000 1  C0              Rx   d 8 00 00 60 60 00 00 00 00
 0.690000 1  1B0             Rx   d 4 00 80 13 68
 0.700000 1  C0              Rx   d 8 00 00 70 70 00 00 00 00
 0.700000 1  1B0             Rx   d 4 FE 7F F5 77
 0.700000 1  D0              Rx   d 8 D2 C7 F3 C1 7C 44 1F 04
 0.700000 1  A0              Rx   d 8 0B 27 54 46 FA 7C FF 7C
 0.710000 1  C0              Rx   d 8 00 00 80 80 00 00 00 00
 0.710000 1  1B0             Rx   d 4 01 80 18 88
 0.720000 1  C0              Rx   d 8 14 00 90 A4 00 00 00 00
 0.720000 1  1B0             Rx   d 4 00 80 F4 97
 0.720000 1  D0              Rx   d 8 D0 07 F4 01 7D 3C 1F 05
 0.720000 1  A0              Rx   d 8 0C 27 51 46 0A 7D 09 7D
 0.730000 1  C0              Rx   d 8 00 00 A0 A0 00 00 00 00
 0.730000 1  1B0             Rx   d 4 01 80 12 A8
 0.740000 1  C0              Rx   d 8 13 00 B0 C3 00 00 00 00
 0.740000 1  1B0             Rx   d 4 00 80 F4 B7
 0.740000 1  D0              Rx   d 8 CF 47 F4 F1 7C 40 1F 06
 0.740000 1  A0              Rx   d 8 14 27 69 46 FA 7C F5 7C
 0.750000 1  C0              Rx   d 8 00 00 C0 C0 00 00 00 00
 0.750000 1  1B0             Rx   d 4 01 80 06 C8
 0.760000 1  C0              Rx   d 8 03 00 D0 D3 00 00 00 00
 0.760000 1  1B0             Rx   d 4 01 80 FE D7
 0.760000 1  D0              Rx   d 8 D1 87 F4 31 7D 40 1F 07
 0.760000 1  A0              Rx   d 8 19 27 49 46 08 7D FB 7C
 0.770000 1  C0              Rx   d 8 00 00 E0 E0 00 00 00 00
 0.770000 1  1B0             Rx   d 4 FE 7F E6 E7
 0.780000 1  C0              Rx   d 8 22 00 F0 12 00 00 00 00
 0.780000 1  1B0             Rx   d 4 FF 7F 0E F8
 0.780000 1  D0              Rx   d 8 D2 07 F4 D1 7C 4C 1F 08
 0.780000 1  A0              Rx   d 8 08 27 4D 46 FB 7C FB 7C
 0.790000 1  C0              Rx   d 8 37 00 00 37 00 00 00 00
 0.790000 1  1B0             Rx   d 4 03 80 28 08
 0.800000 1  C0              Rx   d 8 2B 00 10 3B 00 00 00 00
 0.800000 1  1B0             Rx   d 4 FE 7F CB 17
 0.800000 1  D0              Rx   d 8 CD C7 F4 C1 7C 3C 1F 09
 0.800000 1  A0              Rx   d 8 10 27 50 46 09 7D 0A 7D
 0.810000 1  C0              Rx   d 8 00 00 20 20 00 00 00 00
 0.810000 1  1B0             Rx   d 4 01 80 1D 28
 0.820000 1  C0              Rx   d 8 0E 00 30 3E 00 00 00 00
 0.820000 1  1B0             Rx   d 4 02 80 0D 38
 0.820000 1  D0              Rx   d 8 CF 47 F4 31 7D 44 1F 0A
 0.820000 1  A0              Rx   d 8 0E 27 53 46 FA 7C FA 7C
 0.830000 1  C0              Rx   d 8 03 00 40 43 00 00 00 00
 0.830000 1  1B0             Rx   d 4 00 80 E6 47
 0.840000 1  C0              Rx   d 8 00 00 50 50 00 00 00 00
 0.840000 1  1B0             Rx   d 4 01 80 0C 58
 0.840000 1  D0              Rx   d 8 D3 87 F3 01 7D 40 1F 0B
 0.840000 1  A0              Rx   d 8 12 27 42 46 FE 7C 03 7D
 0.850000 1  C0              Rx   d 8 00 00 60 60 00 00 00 00
 0.850000 1  1B0             Rx   d 4 FD 7F D5 67
 0.860000 1  C0              Rx   d 8 05 00 70 75 00 00 00 00
 0.860000 1  1B0             Rx   d 4 02 80 34 78
 0.860000 1  D0              Rx   d 8 D1 07 F4 11 7D 3C 1F 0C
 0.860000 1  A0              Rx   d 8 13 27 50 46 FF 7C FC 7C
 0.870000 1  C0              Rx   d 8 25 00 80 A5 00 00 00 00
 0.870000 1  1B0             Rx   d 4 02 80 01 88
 0.880000 1  C0              Rx   d 8 00 00 90 90 00 00 00 00
 0.880000 1  1B0             Rx   d 4 00 80 EA 97
 0.880000 1  D0              Rx   d 8 CE 47 F4 D1 7C 3C 1F 0D
 0.880000 1  A0              Rx   d 8 11 27 45 46 FE 7C 00 7D
 0.890000 1  C0              Rx   d 8 06 00 A0 A6 00 00 00 00
 0.890000 1  1B0             Rx   d 4 FD 7F E3 A7
 0.900000 1  C0              Rx   d 8 00 00 B0 B0 00 00 00 00
 0.900000 1  1B0             Rx   d 4 FE 7F 11 B8
 0.900000 1  D0              Rx   d 8 D1 C7 F4 21 7D 3C 1F 0E
 0.900000 1  A0              Rx   d 8 12 27 52 46 06 7D FF 7C
 0.910000 1  C0              Rx   d 8 31 00 C0 F1 00 00 00 00
 0.910000 1  1B0             Rx   d 4 00 80 10 C8
 0.920000 1  C0              Rx   d 8 04 00 D0 D4 00 00 00 00
 0.920000 1  1B0             Rx   d 4 FF 7F F3 D7
 0.920000 1  D0              Rx   d 8 CF C7 F3 11 7D 44 1F 0F
 0.920000 1  A0              Rx   d 8 16 27 5B 46 FE 7C F9 7C
 0.930000 1  C0              Rx   d 8 00 00 E0 E0 00 00 00 00
 0.930000 1  1B0             Rx   d 4 01 80 17 E8
 0.940000 1  C0              Rx   d 8 23 00 F0 13 00 00 00 00
 0.940000 1  1B0             Rx   d 4 00 80 F4 F7
 0.940000 1  D0              Rx   d 8 D1 47 F4 E1 7C 40 1F 00
 0.940000 1  A0              Rx   d 8 15 27 54 46 FC 7C 02 7D
 0.950000 1  C0              Rx   d 8 4E 00 00 4E 00 00 00 00
 0.950000 1  1B0             Rx   d 4 03 80 1B 08
 0.960000 1  C0              Rx   d 8 00 00 10 10 00 00 00 00
 0.960000 1  1B0             Rx   d 4 02 80 F9 17
 0.960000 1  D0              Rx   d 8 D1 47 F4 F1 7C 44 1F 01
 0.960000 1  A0              Rx   d 8 12 27 53 46 05 7D 06 7D
 0.970000 1  C0              Rx   d 8 07 00 20 27 00 00 00 00
 0.970000 1  1B0             Rx   d 4 02 80 00 28
 0.980000 1  C0              Rx   d 8 00 00 30 30 00 00 00 00
 0.980000 1  1B0             Rx   d 4 FC 7F C4 37
 0.980000 1  D0              Rx   d 8 D1 C7 F3 E1 7C 48 1F 02
 0.980000 1  A0              Rx   d 8 07 27 64 46 00 7D 01 7D
 0.990000 1  C0              Rx   d 8 11 00 40 51 00 00 00 00
 0.990000 1  1B0             Rx   d 4 FF 7F 1E 48
 1.000000 1  C0              Rx   d 8 00 00 50 50 00 00 00 00
 1.000000 1  1B0             Rx   d 4 FF 7F FE 57
 1.000000 1  D0              Rx   d 8 CD 07 F4 51 7D 4C 1F 03
 1.000000 1  A0              Rx   d 8 14 27 57 46 FC 7C 05 7D
 1.010000 1  C0              Rx   d 8 07 00 60 67 00 00 00 00
 1.010000 1  1B0             Rx   d 4 00 80 0A 68
 1.020000 1  C0              Rx   d 8 18 00 70 88 00 00 00 00
 1.020000 1  1B0             Rx   d 4 FE 7F EE 77
 1.020000 1  D0              Rx   d 8 D1 C7 F3 31 7D 3C 1F 04
 1.020000 1  A0              Rx   d 8 13 27 48 46 01 7D 05 7D
 1.030000 1  C0              Rx   d 8 0F 00 80 8F 00 00 00 00
 1.030000 1  1B0             Rx   d 4 00 80 11 88
 1.040000 1  C0              Rx   d 8 0E 00 90 9E 00 00 00 00
 1.040000 1  1B0             Rx   d 4 00 80 04 98
 1.040000 1  D0              Rx   d 8 D0 07 F4 F1 7C 3C 1F 05
 1.040000 1  A0              Rx   d 8 10 27 50 46 F4 7C 04 7D
 1.050000 1  C0              Rx   d 8 0C 00 A0 AC 00 00 00 00
 1.050000 1  1B0             Rx   d 4 FE 7F EC A7
 1.060000 1  C0              Rx   d 8 00 00 B0 B0 00 00 00 00
 1.060000 1  1B0             Rx   d 4 01 80 1C B8
 1.060000 1  D0              Rx   d 8 D3 87 F3 21 7D 40 1F 06
 1.060000 1  A0              Rx   d 8 0A 27 5D 46 01 7D 08 7D
 1.070000 1  C0              Rx   d 8 04 00 C0 C4 00 00 00 00
 1.070000 1  1B0             Rx   d 4 00 80 F6 C7
 1.080000 1  C0              Rx   d 8 00 00 D0 D0 00 00 00 00
 1.080000 1  1B0             Rx   d 4 00 80 03 D8
 1.080000 1  D0              Rx   d 8 D1 87 F4 11 7D 34 1F 07
 1.080000 1  A0              Rx   d 8 08 27 6B 46 11 7D FD 7C
 1.090000 1  C0              Rx   d 8 1B 00 E0 FB 00 00 00 00
 1.090000 1  1B0             Rx   d 4 FF 7F F9 E7
 1.100000 1  C0              Rx   d 8 00 00 F0 F0 00 00 00 00
 1.100000 1  1B0             Rx   d 4 FD 7F E7 F7
 1.100000 1  D0              Rx   d 8 D0 87 F3 E1 7C 38 1F 08
 1.100000 1  A0              Rx   d 8 03 27 56 46 F6 7C 08 7D
 1.110000 1  C0              Rx   d 8 23 00 00 23 00 00 00 00
 1.110000 1  1B0             Rx   d 4 02 80 30 08
 1.120000 1  C0              Rx   d 8 00 00 10 10 00 00 00 00
 1.120000 1  1B0             Rx   d 4 FF 7F E5 17
 1.120000 1  D0              Rx   d 8 CF 47 F3 21 7D 38 1F 09
 1.120000 1  A0              Rx   d 8 12 27 5F 46 F8 7C 01 7D
 1.130000 1  C0              Rx   d 8 08 00 20 28 00 00 00 00
 1.130000 1  1B0             Rx   d 4 01 80 15 28
 1.140000 1  C0              Rx   d 8 00 00 30 30 00 00 00 00
 1.140000 1  1B0             Rx   d 4 00 80 FA 37
 1.140000 1  D0              Rx   d 8 CF 47 F4 E1 7C 4C 1F 0A
 1.140000 1  A0              Rx   d 8 0C 27 57 46 0A 7D FA 7C
 1.150000 1  C0              Rx   d 8 01 00 40 41 00 00 00 00
 1.150000 1  1B0             Rx   d 4 02 80 0D 48
 1.160000 1  C0              Rx   d 8 1C 00 50 6C 00 00 00 00
 1.160000 1  1B0             Rx   d 4 00 80 EB 57
 1.160000 1  D0              Rx   d 8 D1 07 F4 01 7D 44 1F 0B
 1.160000 1  A0              Rx   d 8 10 27 45 46 07 7D FB 7C
 1.170000 1  C0              Rx   d 8 53 00 60 B3 00 00 00 00
 1.170000 1  1B0             Rx   d 4 01 80 13 68
 1.180000 1  C0              Rx   d 8 00 00 70 70 00 00 00 00
 1.180000 1  1B0             Rx   d 4 01 80 FF 77
 1.180000 1  D0              Rx   d 8 D1 07 F4 01 7D 4C 1F 0C
 1.180000 1  A0              Rx   d 8 15 27 5D 46 04 7D 00 7D
 1.190000 1  C0              Rx   d 8 0A 00 80 8A 00 00 00 00
 1.190000 1  1B0             Rx   d 4 FD 7F D1 87
 1.200000 1  C0              Rx   d 8 13 00 90 A3 00 00 00 00
 1.200000 1  1B0             Rx   d 4 03 80 42 98
 1.200000 1  D0              Rx   d 8 D1 C7 F3 E1 7C 3C 1F 0D
 1.200000 1  A0              Rx   d 8 18 27 61 46 FD 7C FB 7C
 1.210000 1  C0              Rx   d 8 00 00 A0 A0 00 00 00 00
 1.210000 1  1B0             Rx   d 4 02 80 F5 A7
 1.220000 1  C0              Rx   d 8 29 00 B0 D9 00 00 00 00
 1.220000 1  1B0             Rx   d 4 01 80 F1 B7
 1.220000 1  D0              Rx   d 8 D0 C7 F3 C1 7C 44 1F 0E
 1.220000 1  A0              Rx   d 8 0D 27 42 46 F7 7C 13 7D
 1.230000 1  C0              Rx   d 8 00 00 C0 C0 00 00 00 00
 1.230000 1  1B0             Rx   d 4 03 80 16 C8
 1.240000 1  C0              Rx   d 8 10 00 D0 E0 00 00 00 00
 1.240000 1  1B0             Rx   d 4 00 80 E4 D7
 1.240000 1  D0              Rx   d 8 CE 07 F4 F1 7C 4C 1F 0F
 1.240000 1  A0              Rx   d 8 09 27 38 46 04 7D 05 7D
 1.250000 1  C0              Rx   d 8 18 00 E0 F8 00 00 00 00
 1.250000 1  1B0             Rx   d 4 02 80 14 E8
 1.260000 1  C0              Rx   d 8 2B 00 F0 1B 00 00 00 00
 1.260000 1  1B0             Rx   d 4 03 80 09 F8
 1.260000 1  D0              Rx   d 8 D0 47 F4 21 7D 40 1F 00
 1.260000 1  A0              Rx   d 8 12 27 4D 46 FF 7C 02 7D
 1.270000 1  C0              Rx   d 8 20 00 00 20 00 00 00 00
 1.270000 1  1B0             Rx   d 4 01 80 EC 07
 1.280000 1  C0              Rx   d 8 29 00 10 39 00 00 00 00
 1.280000 1  1B0             Rx   d 4 00 80 F4 17
 1.280000 1  D0              Rx   d 8 D2 C7 F3 31 7D 44 1F 01
 1.280000 1  A0              Rx   d 8 17 27 7A 46 00 7D 02 7D
 1.290000 1  C0              Rx   d 8 32 00 20 52 00 00 00 00
 1.290000 1  1B0             Rx   d 4 02 80 1A 28
 1.300000 1  C0              Rx   d 8 07 00 30 37 00 00 00 00
 1.300000 1  1B0             Rx   d 4 00 80 E9 37
 1.300000 1  D0              Rx   d 8 D0 07 F4 11 7D 4C 1F 02
 1.300000 1  A0              Rx   d 8 14 27 57 46 03 7D FC 7C
 1.310000 1  C0              Rx   d 8 2E 00 40 6E 00 00 00 00
 1.310000 1  1B0             Rx   d 4 FF 7F F4 47
 1.320000 1  C0              Rx   d 8 21 00 50 71 00 00 00 00
 1.320000 1  1B0             Rx   d 4 FF 7F FF 57
 1.320000 1  D0              Rx   d 8 D1 C7 F3 11 7D 40 1F 03
 1.320000 1  A0              Rx   d 8 09 27 53 46 FE 7C FD 7C
 1.330000 1  C0              Rx   d 8 19 00 60 79 00 00 00 00
 1.330000 1  1B0             Rx   d 4 01 80 14 68
 1.340000 1  C0              Rx   d 8 28 00 70 98 00 00 00 00
 1.340000 1  1B0             Rx   d 4 FE 7F E4 77
 1.340000 1  D0              Rx   d 8 D2 C7 F3 21 7D 44 1F 04
 1.340000 1  A0              Rx   d 8 0F 27 52 46 FB 7C 0A 7D
 1.350000 1  C0              Rx   d 8 00 00 80 80 00 00 00 00
 1.350000 1  1B0             Rx   d 4 01 80 1E 88
 1.360000 1  C0              Rx   d 8 00 00 90 90 00 00 00 00
 1.360000 1  1B0             Rx   d 4 FF 7F EE 97
 1.360000 1  D0              Rx   d 8 D1 47 F4 01 7D 3C 1F 05
 1.360000 1  A0              Rx   d 8 0C 27 5F 46 01 7D 09 7D
 1.370000 1  C0              Rx   d 8 10 00 A0 B0 00 00 00 00
 1.370000 1  1B0             Rx   d 4 00 80 09 A8
 1.380000 1  C0              Rx   d 8 00 00 B0 B0 00 00 00 00
 1.380000 1  1B0             Rx   d 4 01 80 0A B8
 1.380000 1  D0              Rx   d 8 CE C7 F3 11 7D 3C 1F 06
 1.380000 1  A0              Rx   d 8 12 27 3C 46 06 7D 04 7D
 1.390000 1  C0              Rx   d 8 28 00 C0 E8 00 00 00 00
 1.390000 1  1B0             Rx   d 4 01 80 FF C7
 1.400000 1  C0              Rx   d 8 00 00 D0 D0 00 00 00 00
 1.400000 1  1B0             Rx   d 4 04 80 1B D8
 1.400000 1  D0              Rx   d 8 CF C7 F3 11 7D 40 1F 07
 1.400000 1  A0              Rx   d 8 14 27 5B 46 F5 7C 06 7D
 1.410000 1  C0              Rx   d 8 03 00 E0 E3 00 00 00 00
 1.410000 1  1B0             Rx   d 4 01 80 E8 E7
 1.420000 1  C0              Rx   d 8 00 00 F0 F0 00 00 00 00
 1.420000 1  1B0             Rx   d 4 01 80 03 F8
 1.420000 1  D0              Rx   d 8 D2 87 F4 F1 7C 3C 1F 08
 1.420000 1  A0              Rx   d 8 14 27 50 46 05 7D 03 7D
 1.430000 1  C0              Rx   d 8 00 00 00 00 00 00 00 00
 1.430000 1  1B0             Rx   d 4 01 80 FF 07
 1.440000 1  C0              Rx   d 8 6A 00 10 7A 00 00 00 00
 1.440000 1  1B0             Rx   d 4 02 80 03 18
 1.440000 1  D0              Rx   d 8 D0 47 F4 F1 7C 3C 1F 09
 1.440000 1  A0              Rx   d 8 17 27 4F 46 04 7D 09 7D
 1.450000 1  C0              Rx   d 8 12 00 20 32 00 00 00 00
 1.450000 1  1B0             Rx   d 4 01 80 F9 27
 1.460000 1  C0              Rx   d 8 00 00 30 30 00 00 00 00
 1.460000 1  1B0             Rx   d 4 00 80 F4 37
 1.460000 1  D0              Rx   d 8 D1 87 F4 31 7D 48 1F 0A
 1.460000 1  A0              Rx   d 8 18 27 4E 46 00 7D F8 7C
 1.470000 1  C0              Rx   d 8 14 00 40 54 00 00 00 00
 1.470000 1  1B0             Rx   d 4 00 80 FF 47
 1.480000 1  C0              Rx   d 8 18 00 50 68 00 00 00 00
 1.480000 1  1B0             Rx   d 4 03 80 25 58
 1.480000 1  D0              Rx   d 8 CF C7 F3 21 7D 40 1F 0B
 1.480000 1  A0              Rx   d 8 16 27 60 46 08 7D 0C 7D
 1.490000 1  C0              Rx   d 8 2F 00 60 8F 00 00 00 00
 1.490000 1  1B0             Rx   d 4 01 80 E4 67
 1.500000 1  C0              Rx   d 8 20 00 70 90 00 00 00 00
 1.500000 1  1B0             Rx   d 4 00 80 FA 77
 1.500000 1  D0              Rx   d 8 D0 47 F3 E1 7C 38 1F 0C
 1.500000 1  A0              Rx   d 8 0C 27 54 46 07 7D 02 7D
 1.510000 1  C0              Rx   d 8 00 00 80 80 00 00 00 00
 1.510000 1  1B0             Rx   d 4 FF 7F FA 87
 1.520000 1  C0              Rx   d 8 2E 00 90 BE 00 00 00 00
 1.520000 1  1B0             Rx   d 4 FF 7F FA 97
 1.520000 1  D0              Rx   d 8 D0 87 F3 21 7D 38 1F 0D
 1.520000 1  A0              Rx   d 8 0C 27 4C 46 FC 7C 06 7D
 1.530000 1  C0              Rx   d 8 00 00 A0 A0 00 00 00 00
 1.530000 1  1B0             Rx   d 4 FE 7F F8 A7
 1.540000 1  C0              Rx   d 8 00 00 B0 B0 00 00 00 00
 1.540000 1  1B0             Rx   d 4 00 80 19 B8
 1.540000 1  D0              Rx   d 8 D2 47 F4 D1 7C 34 1F 0E
 1.540000 1  A0              Rx   d 8 11 27 4A 46 01 7D FB 7C
 1.550000 1  C0              Rx   d 8 00 00 C0 C0 00 00 00 00
 1.550000 1  1B0             Rx   d 4 FE 7F EC C7
 1.560000 1  C0              Rx   d 8 00 00 D0 D0 00 00 00 00
 1.560000 1  1B0             Rx   d 4 FF 7F 03 D8
 1.560000 1  D0              Rx   d 8 D0 C7 F3 21 7D 44 1F 0F
 1.560000 1  A0              Rx   d 8 10 27 5C 46 02 7D 07 7D
 1.570000 1  C0              Rx   d 8 02 00 E0 E2 00 00 00 00
 1.570000 1  1B0             Rx   d 4 00 80 0D E8
 1.580000 1  C0              Rx   d 8 00 00 F0 F0 00 00 00 00
 1.580000 1  1B0             Rx   d 4 00 80 FE F7
 1.580000 1  D0              Rx   d 8 D4 87 F3 01 7D 40 1F 00
 1.580000 1  A0              Rx   d 8 0E 27 32 46 FD 7C F8 7C
 1.590000 1  C0              Rx   d 8 39 00 00 39 00 00 00 00
 1.590000 1  1B0             Rx   d 4 01 80 08 08
 1.600000 1  C0              Rx   d 8 01 00 10 11 00 00 00 00
 1.600000 1  1B0             Rx   d 4 FF 7F F3 17
 1.600000 1  D0              Rx   d 8 D1 07 F4 21 7D 40 1F 01
 1.600000 1  A0              Rx   d 8 10 27 4D 46 FA 7C FD 7C
 1.610000 1  C0              Rx   d 8 00 00 20 20 00 00 00 00
 1.610000 1  1B0             Rx   d 4 FE 7F F3 27
 1.620000 1  C0              Rx   d 8 1E 00 30 4E 00 00 00 00
 1.620000 1  1B0             Rx   d 4 FF 7F 08 38
 1.620000 1  D0              Rx   d 8 D2 07 F5 D1 7C 30 1F 02
 1.620000 1  A0              Rx   d 8 0F 27 3F 46 F9 7C FE 7C
 1.630000 1  C0              Rx   d 8 00 00 40 40 00 00 00 00
 1.630000 1  1B0             Rx   d 4 FF 7F 07 48
 1.640000 1  C0              Rx   d 8 10 00 50 60 00 00 00 00
 1.640000 1  1B0             Rx   d 4 FE 7F EF 57
 1.640000 1  D0              Rx   d 8 CE 87 F4 01 7D 40 1F 03
 1.640000 1  A0              Rx   d 8 16 27 62 46 02 7D F8 7C
 1.650000 1  C0              Rx   d 8 00 00 60 60 00 00 00 00
 1.650000 1  1B0             Rx   d 4 00 80 17 68
 1.660000 1  C0              Rx   d 8 08 00 70 78 00 00 00 00
 1.660000 1  1B0             Rx   d 4 FF 7F FA 77
 1.660000 1  D0              Rx   d 8 D1 C7 F4 01 7D 3C 1F 04
 1.660000 1  A0              Rx   d 8 13 27 57 46 00 7D 01 7D
 1.670000 1  C0              Rx   d 8 00 00 80 80 00 00 00 00
 1.670000 1  1B0             Rx   d 4 FF 7F FF 87
 1.680000 1  C0              Rx   d 8 00 00 90 90 00 00 00 00
 1.680000 1  1B0             Rx   d 4 02 80 1F 98
 1.680000 1  D0              Rx   d 8 D1 47 F4 01 7D 40 1F 05
 1.680000 1  A0              Rx   d 8 0B 27 4F 46 F7 7C F6 7C
 1.690000 1  C0              Rx   d 8 0D 00 A0 AD 00 00 00 00
 1.690000 1  1B0             Rx   d 4 00 80 E6 A7
 1.700000 1  C0              Rx   d 8 00 00 B0 B0 00 00 00 00
 1.700000 1  1B0             Rx   d 4 00 80 03 B8
 1.700000 1  D0              Rx   d 8 D1 47 F4 11 7D 40 1F 06
 1.700000 1  A0              Rx   d 8 0B 27 3E 46 04 7D 06 7D
 1.710000 1  C0              Rx   d 8 28 00 C0 E8 00 00 00 00
 1.710000 1  1B0             Rx   d 4 02 80 14 C8
 1.720000 1  C0              Rx   d 8 26 00 D0 F6 00 00 00 00
 1.720000 1  1B0             Rx   d 4 FF 7F E4 D7
 1.720000 1  D0              Rx   d 8 CE C7 F3 D1 7C 48 1F 07
 1.720000 1  A0              Rx   d 8 0F 27 54 46 F5 7C FE 7C
 1.730000 1  C0              Rx   d 8 00 00 E0 E0 00 00 00 00
 1.730000 1  1B0             Rx   d 4 01 80 13 E8
 1.740000 1  C0              Rx   d 8 00 00 F0 F0 00 00 00 00
 1.740000 1  1B0             Rx   d 4 01 80 03 F8
 1.740000 1  D0              Rx   d 8 D0 07 F4 F1 7C 44 1F 08
 1.740000 1  A0              Rx   d 8 1A 27 47 46 00 7D 06 7D
 1.750000 1  C0              Rx   d 8 00 00 00 00 00 00 00 00
 1.750000 1  1B0             Rx   d 4 01 80 FC 07
 1.760000 1  C0              Rx   d 8 00 00 10 10 00 00 00 00
 1.760000 1  1B0             Rx   d 4 00 80 F3 17
 1.760000 1  D0              Rx   d 8 CF 47 F3 01 7D 40 1F 09
 1.760000 1  A0              Rx   d 8 10 27 4D 46 06 7D F5 7C
 1.770000 1  C0              Rx   d 8 00 00 20 20 00 00 00 00
 1.770000 1  1B0             Rx   d 4 02 80 14 28
 1.780000 1  C0              Rx   d 8 00 00 30 30 00 00 00 00
 1.780000 1  1B0             Rx   d 4 02 80 FF 37
 1.780000 1  D0              Rx   d 8 D1 07 F4 01 7D 3C 1F 0A
 1.780000 1  A0              Rx   d 8 0F 27 3F 46 FF 7C 03 7D
 1.790000 1  C0              Rx   d 8 08 00 40 48 00 00 00 00
 1.790000 1  1B0             Rx   d 4 00 80 EE 47
 1.800000 1  C0              Rx   d 8 1E 00 50 6E 00 00 00 00
 1.800000 1  1B0             Rx   d 4 00 80 FE 57
 1.800000 1  D0              Rx   d 8 CE C7 F3 01 7D 40 1F 0B
 1.800000 1  A0              Rx   d 8 0E 27 45 46 FC 7C 04 7D
 1.810000 1  C0              Rx   d 8 03 00 60 63 00 00 00 00
 1.810000 1  1B0             Rx   d 4 FE 7F F5 67
 1.820000 1  C0              Rx   d 8 00 00 70 70 00 00 00 00
 1.820000 1  1B0             Rx   d 4 01 80 16 78
 1.820000 1  D0              Rx   d 8 D1 C7 F4 F1 7C 38 1F 0C
 1.820000 1  A0              Rx   d 8 1C 27 57 46 F4 7C 07 7D
 1.830000 1  C0              Rx   d 8 00 00 80 80 00 00 00 00
 1.830000 1  1B0             Rx   d 4 00 80 F6 87
 1.840000 1  C0              Rx   d 8 00 00 90 90 00 00 00 00
 1.840000 1  1B0             Rx   d 4 FF 7F FD 97
 1.840000 1  D0              Rx   d 8 D0 87 F4 01 7D 44 1F 0D
 1.840000 1  A0              Rx   d 8 10 27 49 46 03 7D FF 7C
 1.850000 1  C0              Rx   d 8 00 00 A0 A0 00 00 00 00
 1.850000 1  1B0             Rx   d 4 FF 7F F8 A7
 1.860000 1  C0              Rx   d 8 00 00 B0 B0 00 00 00 00
 1.860000 1  1B0             Rx   d 4 FE 7F FA B7
 1.860000 1  D0              Rx   d 8 CF 87 F3 11 7D 38 1F 0E
 1.860000 1  A0              Rx   d 8 15 27 58 46 0C 7D 09 7D
 1.870000 1  C0              Rx   d 8 09 00 C0 C9 00 00 00 00
 1.870000 1  1B0             Rx   d 4 01 80 1A C8
 1.880000 1  C0              Rx   d 8 3B 00 D0 0B 00 00 00 00
 1.880000 1  1B0             Rx   d 4 FE 7F E5 D7
 1.880000 1  D0              Rx   d 8 CE 07 F3 D1 7C 38 1F 0F
 1.880000 1  A0              Rx   d 8 0C 27 48 46 05 7D 04 7D
 1.890000 1  C0              Rx   d 8 00 00 E0 E0 00 00 00 00
 1.890000 1  1B0             Rx   d 4 00 80 15 E8
 1.900000 1  C0              Rx   d 8 00 00 F0 F0 00 00 00 00
 1.900000 1  1B0             Rx   d 4 02 80 16 F8
 1.900000 1  D0              Rx   d 8 D2 C7 F3 E1 7C 3C 1F 00
 1.900000 1  A0              Rx   d 8 13 27 58 46 01 7D 07 7D
 1.910000 1  C0              Rx   d 8 07 00 00 07 00 00 00 00
 1.910000 1  1B0             Rx   d 4 FE 7F D3 07
 1.920000 1  C0              Rx   d 8 13 00 10 23 00 00 00 00
 1.920000 1  1B0             Rx   d 4 FD 7F FA 17
 1.920000 1  D0              Rx   d 8 CD 87 F3 F1 7C 48 1F 01
 1.920000 1  A0              Rx   d 8 14 27 57 46 00 7D 09 7D
 1.930000 1  C0              Rx   d 8 00 00 20 20 00 00 00 00
 1.930000 1  1B0             Rx   d 4 01 80 26 28
 1.940000 1  C0              Rx   d 8 2B 00 30 5B 00 00 00 00
 1.940000 1  1B0             Rx   d 4 FD 7F D9 37
 1.940000 1  D0              Rx   d 8 CD 47 F4 11 7D 44 1F 02
 1.940000 1  A0              Rx   d 8 15 27 3E 46 09 7D 00 7D
 1.950000 1  C0              Rx   d 8 00 00 40 40 00 00 00 00
 1.950000 1  1B0             Rx   d 4 00 80 20 48
 1.960000 1  C0              Rx   d 8 00 00 50 50 00 00 00 00
 1.960000 1  1B0             Rx   d 4 FF 7F F0 57
 1.960000 1  D0              Rx   d 8 D1 47 F4 F1 7C 44 1F 03
 1.960000 1  A0              Rx   d 8 19 27 58 46 08 7D 06 7D
 1.970000 1  C0              Rx   d 8 3F 00 60 9F 00 00 00 00
 1.970000 1  1B0             Rx   d 4 FE 7F FC 67
 1.980000 1  C0              Rx   d 8 0C 00 70 7C 00 00 00 00
 1.980000 1  1B0             Rx   d 4 FE 7F 02 78
 1.980000 1  D0              Rx   d 8 CD C7 F3 F1 7C 40 1F 04
 1.980000 1  A0              Rx   d 8 0C 27 47 46 04 7D F6 7C
 1.990000 1  C0              Rx   d 8 0E 00 80 8E 00 00 00 00
 1.990000 1  1B0             Rx   d 4 00 80 0E 88
 2.000000 1  C0              Rx   d 8 08 00 90 98 00 00 00 00
 2.000000 1  1B0             Rx   d 4 01 80 09 98
 2.000000 1  D0              Rx   d 8 D1 07 F4 31 7D 3C 1F 05
 2.000000 1  A0              Rx   d 8 09 27 5B 46 04 7D F5 7C
 2.010000 1  C0              Rx   d 8 42 02 A0 E4 00 00 00 00
 2.010000 1  1B0             Rx   d 4 EE 7F 47 A7
 2.020000 1  C0              Rx   d 8 E1 03 B0 94 00 00 00 00
 2.020000 1  1B0             Rx   d 4 D6 7F 0C B7
 2.020000 1  D0              Rx   d 8 CA 07 F2 81 7C 18 1F 06
 2.020000 1  A0              Rx   d 8 E6 26 71 47 7C 7D 9C 7A
 2.030000 1  C0              Rx   d 8 3C 06 C0 02 00 00 00 00
 2.030000 1  1B0             Rx   d 4 C7 7F 6A C7
 2.040000 1  C0              Rx   d 8 41 08 D0 19 00 00 00 00
 2.040000 1  1B0             Rx   d 4 BC 7F 92 D7
 2.040000 1  D0              Rx   d 8 BE 07 F0 E1 7B F8 1E 07
 2.040000 1  A0              Rx   d 8 B8 26 FA 47 D4 7D A3 7A
 2.050000 1  C0              Rx   d 8 2C 0A E0 16 00 00 00 00
 2.050000 1  1B0             Rx   d 4 BE 7F 17 E8
 2.060000 1  C0              Rx   d 8 29 0C F0 25 00 00 00 00
 2.060000 1  1B0             Rx   d 4 C5 7F 47 F8
 2.060000 1  D0              Rx   d 8 B6 07 ED 51 7B D8 1E 08
 2.060000 1  A0              Rx   d 8 8E 26 B2 47 BA 7D A6 7A
 2.070000 1  C0              Rx   d 8 4F 0E 00 5D 00 00 00 00
 2.070000 1  1B0             Rx   d 4 CB 7F 3C 08
 2.080000 1  C0              Rx   d 8 68 10 10 88 00 00 00 00
 2.080000 1  1B0             Rx   d 4 D1 7F 36 18
 2.080000 1  D0              Rx   d 8 AE 87 EB F1 7A B8 1E 09
 2.080000 1  A0              Rx   d 8 65 26 5E 47 93 7D A2 7A
 2.090000 1  C0              Rx   d 8 89 12 20 BB 00 00 00 00
 2.090000 1  1B0             Rx   d 4 CC 7F D4 27
 2.100000 1  C0              Rx   d 8 36 14 30 7A 00 00 00 00
 2.100000 1  1B0             Rx   d 4 BD 7F 67 37
 2.100000 1  D0              Rx   d 8 A5 87 E9 91 7A 98 1E 0A
 2.100000 1  A0              Rx   d 8 37 26 EF 47 CA 7D A6 7A
 2.110000 1  C0              Rx   d 8 4D 16 40 A3 00 00 00 00
 2.110000 1  1B0             Rx   d 4 AC 7F 55 47
 2.120000 1  C0              Rx   d 8 32 18 50 9A 00 00 00 00
 2.120000 1  1B0             Rx   d 4 9A 7F 4C 57
 2.120000 1  D0              Rx   d 8 9D C7 E6 D1 79 78 1E 0B
 2.120000 1  A0              Rx   d 8 11 26 BC 48 33 7E 9D 7A
 2.130000 1  C0              Rx   d 8 69 1A 61 E4 00 00 00 00
 2.130000 1  1B0             Rx   d 4 90 7F 9E 67
 2.140000 1  C0              Rx   d 8 97 1C 71 24 00 00 00 00
 2.140000 1  1B0             Rx   d 4 96 7F 39 78
 2.140000 1  D0              Rx   d 8 5D 07 E5 21 71 D4 1C 0C
 2.140000 1  A0              Rx   d 8 E4 25 F1 48 46 7E AE 7A
 2.150000 1  C0              Rx   d 8 4F 1E 81 EE 00 00 00 00
 2.150000 1  1B0             Rx   d 4 A1 7F 69 88
 2.160000 1  C0              Rx   d 8 86 20 91 37 00 00 00 00
 2.160000 1  1B0             Rx   d 4 AA 7F 64 98
 2.160000 1  D0              Rx   d 8 73 47 D5 B1 65 CC 1C 0D
 2.160000 1  A0              Rx   d 8 B5 25 67 48 F6 7D 9F 7A
 2.170000 1  C0              Rx   d 8 BC 22 A1 7F 00 00 00 00
 2.170000 1  1B0             Rx   d 4 B2 7F 4A A8
 2.180000 1  C0              Rx   d 8 A7 24 B1 7C 00 00 00 00
 2.180000 1  1B0             Rx   d 4 B2 7F FE B7
 2.180000 1  D0              Rx   d 8 AB 86 C6 D1 6A C8 1D 0E
 2.180000 1  A0              Rx   d 8 96 25 4F 48 EF 7D A8 7A
 2.190000 1  C0              Rx   d 8 B6 26 C1 9D 00 00 00 00
 2.190000 1  1B0             Rx   d 4 A3 7F 6F C7
 2.200000 1  C0              Rx   d 8 C5 28 D1 BE 00 00 00 00
 2.200000 1  1B0             Rx   d 4 94 7F 65 D7
 2.200000 1  D0              Rx   d 8 4F 86 CF 61 76 C8 1D 0F
 2.200000 1  A0              Rx   d 8 6F 25 F5 48 4A 7E A2 7A
 2.210000 1  C0              Rx   d 8 85 2A E1 90 00 00 00 00
 2.210000 1  1B0             Rx   d 4 87 7F 7D E7
 2.220000 1  C0              Rx   d 8 73 2C F1 90 00 00 00 00
 2.220000 1  1B0             Rx   d 4 7F 7F B2 F7
 2.220000 1  D0              Rx   d 8 F7 46 DC 61 73 A0 1C 00
 2.220000 1  A0              Rx   d 8 3B 25 79 49 79 7E AC 7A
 2.230000 1  C0              Rx   d 8 75 2E 01 A4 00 00 00 00
 2.230000 1  1B0             Rx   d 4 7F 7F 07 08
 2.240000 1  C0              Rx   d 8 BE 30 11 FF 00 00 00 00
 2.240000 1  1B0             Rx   d 4 8D 7F 8C 18
 2.240000 1  D0              Rx   d 8 6A C7 D2 61 66 14 1C 01
 2.240000 1  A0              Rx   d 8 14 25 26 49 56 7E A9 7A
 2.250000 1  C0              Rx   d 8 B6 32 21 09 00 00 00 00
 2.250000 1  1B0             Rx   d 4 98 7F 6B 28
 2.260000 1  C0              Rx   d 8 F1 32 31 54 00 00 00 00
 2.260000 1  1B0             Rx   d 4 A2 7F 62 38
 2.260000 1  D0              Rx   d 8 D6 06 C0 41 65 D4 1C 02
 2.260000 1  A0              Rx   d 8 E9 24 9C 48 20 7E AB 7A
 2.270000 1  C0              Rx   d 8 DB 32 41 4E 00 00 00 00
 2.270000 1  1B0             Rx   d 4 A2 7F 05 48
 2.280000 1  C0              Rx   d 8 F3 32 51 76 00 00 00 00
 2.280000 1  1B0             Rx   d 4 9A 7F AE 57
 2.280000 1  D0              Rx   d 8 30 06 C2 E1 70 5C 1D 03
 2.280000 1  A0              Rx   d 8 C2 24 E5 48 31 7E A3 7A
 2.290000 1  C0              Rx   d 8 E1 32 61 74 00 00 00 00
 2.290000 1  1B0             Rx   d 4 86 7F 3B 67
 2.300000 1  C0              Rx   d 8 AC 32 73 51 00 00 00 00
 2.300000 1  1B0             Rx   d 4 8C 7F 39 78
 2.300000 1  D0              Rx   d 8 8D 46 D0 61 74 7C 1C 04
 2.300000 1  A0              Rx   d 8 96 24 3E 49 62 7E B2 7A
 2.310000 1  C0              Rx   d 8 A7 32 83 5C 00 00 00 00
 2.310000 1  1B0             Rx   d 4 8C 7F FC 87
 2.320000 1  C0              Rx   d 8 C7 32 93 8C 00 00 00 00
 2.320000 1  1B0             Rx   d 4 92 7F 3D 98
 2.320000 1  D0              Rx   d 8 39 C7 CE 61 68 8C 1B 05
 2.320000 1  A0              Rx   d 8 73 24 0D 49 3E 7E A5 7A
 2.330000 1  C0              Rx   d 8 14 33 A3 EA 00 00 00 00
 2.330000 1  1B0             Rx   d 4 97 7F 36 A8
 2.340000 1  C0              Rx   d 8 ED 32 B3 D2 00 00 00 00
 2.340000 1  1B0             Rx   d 4 A2 7F 6D B8
 2.340000 1  D0              Rx   d 8 F9 46 BC A1 61 00 1C 06
 2.340000 1  A0              Rx   d 8 3B 24 A2 48 0F 7E AC 7A
 2.350000 1  C0              Rx   d 8 B8 32 C3 AD 00 00 00 00
 2.350000 1  1B0             Rx   d 4 A5 7F 1D C8
 2.360000 1  C0              Rx   d 8 EC 32 D3 F1 00 00 00 00
 2.360000 1  1B0             Rx   d 4 AC 7F 45 D8
 2.360000 1  D0              Rx   d 8 30 46 B5 91 6A D0 1C 07
 2.360000 1  A0              Rx   d 8 15 24 66 48 F4 7D A0 7A
 2.370000 1  C0              Rx   d 8 2D 33 E3 43 00 00 00 00
 2.370000 1  1B0             Rx   d 4 AB 7F F5 E7
 2.380000 1  C0              Rx   d 8 DE 32 F3 03 00 00 00 00
 2.380000 1  1B0             Rx   d 4 AA 7F F9 F7
 2.380000 1  D0              Rx   d 8 30 46 C2 D1 72 60 1C 08
 2.380000 1  A0              Rx   d 8 E9 23 67 48 F6 7D AD 7A
 2.390000 1  C0              Rx   d 8 D3 32 03 08 00 00 00 00
 2.390000 1  1B0             Rx   d 4 A9 7F F7 07
 2.400000 1  C0              Rx   d 8 B9 32 13 FE 00 00 00 00
 2.400000 1  1B0             Rx   d 4 A8 7F F0 17
 2.400000 1  D0              Rx   d 8 E9 06 CA 31 6B 2C 1B 09
 2.400000 1  A0              Rx   d 8 C2 23 71 48 EA 7D A9 7A
 2.410000 1  C0              Rx   d 8 ED 32 23 42 00 00 00 00
 2.410000 1  1B0             Rx   d 4 AD 7F 35 28
 2.420000 1  C0              Rx   d 8 FC 32 33 61 00 00 00 00
 2.420000 1  1B0             Rx   d 4 B0 7F 20 38
 2.420000 1  D0              Rx   d 8 0A 07 BB 21 60 20 1B 0A
 2.420000 1  A0              Rx   d 8 96 23 3B 48 D5 7D A0 7A
 2.430000 1  C0              Rx   d 8 AB 32 43 20 00 00 00 00
 2.430000 1  1B0             Rx   d 4 B8 7F 4B 48
 2.440000 1  C0              Rx   d 8 D1 32 53 56 00 00 00 00
 2.440000 1  1B0             Rx   d 4 BD 7F 37 58
 2.440000 1  D0              Rx   d 8 51 06 AD 21 64 08 1C 0B
 2.440000 1  A0              Rx   d 8 72 23 EE 47 B6 7D A4 7A
 2.450000 1  C0              Rx   d 8 D5 32 63 6A 00 00 00 00
 2.450000 1  1B0             Rx   d 4 C2 7F 2C 68
 2.460000 1  C0              Rx   d 8 A0 32 73 45 00 00 00 00
 2.460000 1  1B0             Rx   d 4 C1 7F FD 77
 2.460000 1  D0              Rx   d 8 F1 85 B4 41 6F 14 1C 0C
 2.460000 1  A0              Rx   d 8 46 23 EB 47 AA 7D A2 7A
 2.470000 1  C0              Rx   d 8 DF 32 83 94 00 00 00 00
 2.470000 1  1B0             Rx   d 4 BF 7F E5 87
 2.480000 1  C0              Rx   d 8 D7 32 93 9C 00 00 00 00
 2.480000 1  1B0             Rx   d 4 BA 7F D4 97
 2.480000 1  D0              Rx   d 8 87 46 C0 61 6D 00 1B 0D
 2.480000 1  A0              Rx   d 8 1C 23 F8 47 B2 7D A0 7A
 2.490000 1  C0              Rx   d 8 9B 32 A3 70 00 00 00 00
 2.490000 1  1B0             Rx   d 4 BC 7F 11 A8
 2.500000 1  C0              Rx   d 8 03 33 B3 E9 00 00 00 00
 2.500000 1  1B0             Rx   d 4 BA 7F ED B7
 2.500000 1  D0              Rx   d 8 FF 86 B8 C1 60 70 1A 0E
 2.500000 1  A0              Rx   d 8 F4 22 FF 47 BC 7D AA 7A
 2.510000 1  C0              Rx   d 8 C7 32 C3 BC 00 00 00 00
 2.510000 1  1B0             Rx   d 4 C0 7F 40 C8
 2.520000 1  C0              Rx   d 8 D9 32 D3 DE 00 00 00 00
 2.520000 1  1B0             Rx   d 4 CA 7F 64 D8
 2.520000 1  D0              Rx   d 8 78 C6 A6 01 5F 28 1B 0F
 2.520000 1  A0              Rx   d 8 C6 22 B8 47 9B 7D A5 7A
 2.530000 1  C0              Rx   d 8 D0 32 E3 E5 00 00 00 00
 2.530000 1  1B0             Rx   d 4 CA 7F 02 E8
 2.540000 1  C0              Rx   d 8 C9 32 F3 EE 00 00 00 00
 2.540000 1  1B0             Rx   d 4 CC 7F 11 F8
 2.540000 1  D0              Rx   d 8 D3 85 A6 E1 69 B4 1B 00
 2.540000 1  A0              Rx   d 8 96 22 7E 47 84 7D 9E 7A
 2.550000 1  C0              Rx   d 8 F3 32 03 28 00 00 00 00
 2.550000 1  1B0             Rx   d 4 CE 7F 11 08
 2.560000 1  C0              Rx   d 8 C2 32 13 07 00 00 00 00
 2.560000 1  1B0             Rx   d 4 CA 7F D7 17
 2.560000 1  D0              Rx   d 8 22 06 B5 B1 6D E0 1A 01
 2.560000 1  A0              Rx   d 8 6D 22 81 47 98 7D A0 7A
 2.570000 1  C0              Rx   d 8 EA 32 23 3F 00 00 00 00
 2.570000 1  1B0             Rx   d 4 C9 7F F5 27
 2.580000 1  C0              Rx   d 8 9F 32 33 04 00 00 00 00
 2.580000 1  1B0             Rx   d 4 C9 7F FF 37
 2.580000 1  D0              Rx   d 8 C7 86 B4 21 63 E0 19 02
 2.580000 1  A0              Rx   d 8 48 22 CC 47 A6 7D A5 7A
 2.590000 1  C0              Rx   d 8 F3 32 43 68 00 00 00 00
 2.590000 1  1B0             Rx   d 4 C4 7F D1 47
 2.600000 1  C0              Rx   d 8 AD 32 53 32 00 00 00 00
 2.600000 1  1B0             Rx   d 4 CB 7F 43 58
 2.600000 1  D0              Rx   d 8 9A C6 A2 C1 5B 44 1A 03
 2.600000 1  A0              Rx   d 8 1C 22 A5 47 8E 7D AF 7A
 2.610000 1  C0              Rx   d 8 03 33 63 99 00 00 00 00
 2.610000 1  1B0             Rx   d 4 D0 7F 36 68
 2.620000 1  C0              Rx   d 8 BE 32 73 63 00 00 00 00
 2.620000 1  1B0             Rx   d 4 D4 7F 2C 78
 2.620000 1  D0              Rx   d 8 D9 C5 9B C1 63 00 1B 04
 2.620000 1  A0              Rx   d 8 E9 21 77 47 76 7D A9 7A
 2.630000 1  C0              Rx   d 8 D3 32 83 88 00 00 00 00
 2.630000 1  1B0             Rx   d 4 D6 7F 12 88
 2.640000 1  C0              Rx   d 8 F2 32 93 B7 00 00 00 00
 2.640000 1  1B0             Rx   d 4 D6 7F FB 97
 2.640000 1  D0              Rx   d 8 CB C5 A6 01 6C B8 1A 05
 2.640000 1  A0              Rx   d 8 C2 21 50 47 70 7D AA 7A
 2.650000 1  C0              Rx   d 8 D8 32 A3 AD 00 00 00 00
 2.650000 1  1B0             Rx   d 4 D5 7F F6 A7
 2.660000 1  C0              Rx   d 8 D8 32 B3 BD 00 00 00 00
 2.660000 1  1B0             Rx   d 4 CD 7F AF B7
 2.660000 1  D0              Rx   d 8 76 C6 AD 51 65 98 19 06
 2.660000 1  A0              Rx   d 8 9E 21 76 47 8D 7D A9 7A
 2.670000 1  C0              Rx   d 8 CA 32 C3 BF 00 00 00 00
 2.670000 1  1B0             Rx   d 4 CD 7F 01 C8
 2.680000 1  C0              Rx   d 8 C3 32 D3 C8 00 00 00 00
 2.680000 1  1B0             Rx   d 4 CC 7F F6 D7
 2.680000 1  D0              Rx   d 8 A3 46 A0 91 5A 6C 19 07
 2.680000 1  A0              Rx   d 8 6B 21 9F 47 88 7D B0 7A
 2.690000 1  C0              Rx   d 8 B0 32 E3 C5 00 00 00 00
 2.690000 1  1B0             Rx   d 4 D3 7F 4C E8
 2.700000 1  C0              Rx   d 8 FD 32 F3 22 00 00 00 00
 2.700000 1  1B0             Rx   d 4 D4 7F 0A F8
 2.700000 1  D0              Rx   d 8 F3 85 92 A1 5D 3C 1A 08
 2.700000 1  A0              Rx   d 8 42 21 5E 47 76 7D 99 7A
 2.710000 1  C0              Rx   d 8 EA 32 03 1F 00 00 00 00
 2.710000 1  1B0             Rx   d 4 D9 7F 2D 08
 2.720000 1  C0              Rx   d 8 DF 32 13 24 00 00 00 00
 2.720000 1  1B0             Rx   d 4 DC 7F 24 18
 2.720000 1  D0              Rx   d 8 92 45 99 31 68 60 1A 09
 2.720000 1  A0              Rx   d 8 1A 21 3B 47 5D 7D 9E 7A
 2.730000 1  C0              Rx   d 8 A1 32 23 F6 00 00 00 00
 2.730000 1  1B0             Rx   d 4 DB 7F F3 27
 2.740000 1  C0              Rx   d 8 B8 32 33 1D 00 00 00 00
 2.740000 1  1B0             Rx   d 4 D9 7F E7 37
 2.740000 1  D0              Rx   d 8 19 C6 A4 D1 66 68 19 0A
 2.740000 1  A0              Rx   d 8 F5 20 3E 47 63 7D AB 7A
 2.750000 1  C0              Rx   d 8 BF 32 43 34 00 00 00 00
 2.750000 1  1B0             Rx   d 4 D2 7F BF 47
 2.760000 1  C0              Rx   d 8 D4 32 53 59 00 00 00 00
 2.760000 1  1B0             Rx   d 4 D3 7F 06 58
 2.760000 1  D0              Rx   d 8 8B 46 9E 51 5B D0 18 0B
 2.760000 1  A0              Rx   d 8 C7 20 73 47 7A 7D 9D 7A
 2.770000 1  C0              Rx   d 8 C1 32 63 56 00 00 00 00
 2.770000 1  1B0             Rx   d 4 D0 7F E4 67
 2.780000 1  C0              Rx   d 8 BE 32 73 63 00 00 00 00
 2.780000 1  1B0             Rx   d 4 D5 7F 30 78
 2.780000 1  D0              Rx   d 8 16 C6 8C F1 58 6C 19 0C
 2.780000 1  A0              Rx   d 8 9B 20 65 47 7C 7D A3 7A
 2.790000 1  C0              Rx   d 8 CF 32 83 84 00 00 00 00
 2.790000 1  1B0             Rx   d 4 D7 7F 13 88
 2.800000 1  C0              Rx   d 8 B8 32 93 7D 00 00 00 00
 2.800000 1  1B0             Rx   d 4 DA 7F 21 98
 2.800000 1  D0              Rx   d 8 79 05 8C F1 62 F4 19 0D
 2.800000 1  A0              Rx   d 8 70 20 33 47 5D 7D AD 7A
 2.810000 1  C0              Rx   d 8 84 32 A3 59 00 00 00 00
 2.810000 1  1B0             Rx   d 4 E0 7F 3D A8
 2.820000 1  C0              Rx   d 8 A8 32 B3 8D 00 00 00 00
 2.820000 1  1B0             Rx   d 4 DD 7F DF B7
 2.820000 1  D0              Rx   d 8 B8 45 98 11 67 40 19 0E
 2.820000 1  A0              Rx   d 8 44 20 30 47 52 7D A5 7A
 2.830000 1  C0              Rx   d 8 EA 32 C3 DF 00 00 00 00
 2.830000 1  1B0             Rx   d 4 DB 7F EE C7
 2.840000 1  C0              Rx   d 8 83 32 D3 88 00 00 00 00
 2.840000 1  1B0             Rx   d 4 D5 7F C1 D7
 2.840000 1  D0              Rx   d 8 57 06 99 41 5D 50 18 0F
 2.840000 1  A0              Rx   d 8 21 20 50 47 70 7D A6 7A
 2.850000 1  C0              Rx   d 8 C7 32 E3 DC 00 00 00 00
 2.850000 1  1B0             Rx   d 4 D5 7F 06 E8
 2.860000 1  C0              Rx   d 8 AC 32 F3 D1 00 00 00 00
 2.860000 1  1B0             Rx   d 4 D4 7F F4 F7
 2.860000 1  D0              Rx   d 8 33 46 89 E1 55 94 18 00
 2.860000 1  A0              Rx   d 8 F4 1F 73 47 6A 7D A5 7A
 2.870000 1  C0              Rx   d 8 E3 32 03 18 00 00 00 00
 2.870000 1  1B0             Rx   d 4 D6 7F 17 08
 2.880000 1  C0              Rx   d 8 F2 32 13 37 00 00 00 00
 2.880000 1  1B0             Rx   d 4 D9 7F 1A 18
 2.880000 1  D0              Rx   d 8 82 85 80 D1 5C 50 19 01
 2.880000 1  A0              Rx   d 8 CF 1F 41 47 5C 7D A6 7A
 2.890000 1  C0              Rx   d 8 AC 32 23 01 00 00 00 00
 2.890000 1  1B0             Rx   d 4 DE 7F 2F 28
 2.900000 1  C0              Rx   d 8 DC 32 33 41 00 00 00 00
 2.900000 1  1B0             Rx   d 4 E0 7F 1A 38
 2.900000 1  D0              Rx   d 8 67 C5 8B 01 65 08 19 02
 2.900000 1  A0              Rx   d 8 9E 1F 18 47 4B 7D AE 7A
 2.910000 1  C0              Rx   d 8 D8 32 43 4D 00 00 00 00
 2.910000 1  1B0             Rx   d 4 E0 7F F8 47
 2.920000 1  C0              Rx   d 8 C1 32 53 46 00 00 00 00
 2.920000 1  1B0             Rx   d 4 DF 7F FD 57
 2.920000 1  D0              Rx   d 8 05 06 93 61 5F FC 17 03
 2.920000 1  A0              Rx   d 8 72 1F 3B 47 54 7D A8 7A
 2.930000 1  C0              Rx   d 8 F0 32 63 85 00 00 00 00
 2.930000 1  1B0             Rx   d 4 D8 7F B8 67
 2.940000 1  C0              Rx   d 8 D8 32 73 7D 00 00 00 00
 2.940000 1  1B0             Rx   d 4 D7 7F F7 77
 2.940000 1  D0              Rx   d 8 3B 06 87 D1 54 D4 17 04
 2.940000 1  A0              Rx   d 8 46 1F 5C 47 6D 7D 9D 7A
 2.950000 1  C0              Rx   d 8 73 32 83 28 00 00 00 00
 2.950000 1  1B0             Rx   d 4 D6 7F F3 87
 2.960000 1  C0              Rx   d 8 B0 32 93 75 00 00 00 00
 2.960000 1  1B0             Rx   d 4 D7 7F 0D 98
 2.960000 1  D0              Rx   d 8 9A 45 78 11 57 8C 18 05
 2.960000 1  A0              Rx   d 8 16 1F 4D 47 69 7D 9F 7A
 2.970000 1  C0              Rx   d 8 DF 32 A3 B4 00 00 00 00
 2.970000 1  1B0             Rx   d 4 DC 7F 31 A8
 2.980000 1  C0              Rx   d 8 C2 32 B3 A7 00 00 00 00
 2.980000 1  1B0             Rx   d 4 E0 7F 26 B8
 2.980000 1  D0              Rx   d 8 36 C5 7D 61 61 B4 18 06
 2.980000 1  A0              Rx   d 8 EA 1E 11 47 55 7D A7 7A
 2.990000 1  C0              Rx   d 8 E2 32 C3 D7 00 00 00 00
 2.990000 1  1B0             Rx   d 4 E0 7F FD C7
 3.000000 1  C0              Rx   d 8 D9 32 D3 DE 00 00 00 00
 3.000000 1  1B0             Rx   d 4 DF 7F F8 D7
 3.000000 1  D0              Rx   d 8 AA 05 89 61 60 C0 17 07
 3.000000 1  A0              Rx   d 8 C0 1E 0F 47 53 7D A1 7A
 3.010000 1  C0              Rx   d 8 CF 32 E3 E4 00 00 00 00
 3.010000 1  1B0             Rx   d 4 E0 7F 0B E8
 3.020000 1  C0              Rx   d 8 E7 32 F3 0C 00 00 00 00
 3.020000 1  1B0             Rx   d 4 DC 7F D8 F7
 3.020000 1  D0              Rx   d 8 1F 06 83 91 55 30 17 08
 3.020000 1  A0              Rx   d 8 A4 1E 40 47 57 7D A0 7A
 3.030000 1  C0              Rx   d 8 E4 32 03 19 00 00 00 00
 3.030000 1  1B0             Rx   d 4 D5 7F BF 07
 3.040000 1  C0              Rx   d 8 B0 32 13 F5 00 00 00 00
 3.040000 1  1B0             Rx   d 4 D7 7F 0C 18
 3.040000 1  D0              Rx   d 8 B9 85 71 B1 52 B0 17 09
 3.040000 1  A0              Rx   d 8 72 1E 59 47 67 7D A1 7A
 3.050000 1  C0              Rx   d 8 DC 32 23 31 00 00 00 00
 3.050000 1  1B0             Rx   d 4 D6 7F F6 27
 3.060000 1  C0              Rx   d 8 F0 32 33 55 00 00 00 00
 3.060000 1  1B0             Rx   d 4 DE 7F 53 38
 3.060000 1  D0              Rx   d 8 1D 05 72 C1 5B 40 18 0A
 3.060000 1  A0              Rx   d 8 46 1E 39 47 52 7D A4 7A
 3.070000 1  C0              Rx   d 8 BD 32 43 32 00 00 00 00
 3.070000 1  1B0             Rx   d 4 E2 7F 27 48
 3.080000 1  C0              Rx   d 8 D3 32 53 58 00 00 00 00
 3.080000 1  1B0             Rx   d 4 E4 7F 13 58
 3.080000 1  D0              Rx   d 8 51 C5 7C 11 60 A4 17 0B
 3.080000 1  A0              Rx   d 8 1C 1E F9 46 4B 7D A4 7A
 3.090000 1  C0              Rx   d 8 8C 32 63 21 00 00 00 00
 3.090000 1  1B0             Rx   d 4 E2 7F EF 67
 3.100000 1  C0              Rx   d 8 2A 33 73 D0 00 00 00 00
 3.100000 1  1B0             Rx   d 4 E1 7F F4 77
 3.100000 1  D0              Rx   d 8 E8 C5 7E 31 57 A8 16 0C
 3.100000 1  A0              Rx   d 8 F6 1D 13 47 57 7D A7 7A
 3.110000 1  C0              Rx   d 8 8F 32 83 44 00 00 00 00
 3.110000 1  1B0             Rx   d 4 DC 7F CE 87
 3.120000 1  C0              Rx   d 8 DE 32 93 A3 00 00 00 00
 3.120000 1  1B0             Rx   d 4 DA 7F EE 97
 3.120000 1  D0              Rx   d 8 D0 85 6E 01 50 D8 16 0D
 3.120000 1  A0              Rx   d 8 C5 1D 39 47 57 7D A8 7A
 3.130000 1  C0              Rx   d 8 DE 32 A3 B3 00 00 00 00
 3.130000 1  1B0             Rx   d 4 D6 7F D8 A7
 3.140000 1  C0              Rx   d 8 9D 32 B3 82 00 00 00 00
 3.140000 1  1B0             Rx   d 4 D9 7F 1F B8
 3.140000 1  D0              Rx   d 8 24 45 66 31 56 94 17 0E
 3.140000 1  A0              Rx   d 8 A1 1D 47 47 5C 7D A5 7A
 3.150000 1  C0              Rx   d 8 E8 32 C3 DD 00 00 00 00
 3.150000 1  1B0             Rx   d 4 DD 7F 29 C8
 3.160000 1  C0              Rx   d 8 D7 32 D3 DC 00 00 00 00
 3.160000 1  1B0             Rx   d 4 E0 7F 1B D8
 3.160000 1  D0              Rx   d 8 05 85 6F E1 5D 54 17 0F
 3.160000 1  A0              Rx   d 8 75 1D 1A 47 3C 7D AA 7A
 3.170000 1  C0              Rx   d 8 72 32 E3 87 00 00 00 00
 3.170000 1  1B0             Rx   d 4 E6 7F 3C E8
 3.180000 1  C0              Rx   d 8 DA 32 F3 FF 00 00 00 00
 3.180000 1  1B0             Rx   d 4 E4 7F F2 F7
 3.180000 1  D0              Rx   d 8 97 85 77 F1 58 68 16 00
 3.180000 1  A0              Rx   d 8 4D 1D 02 47 40 7D A8 7A
 3.190000 1  C0              Rx   d 8 DF 32 03 14 00 00 00 00
 3.190000 1  1B0             Rx   d 4 E1 7F DA 07
 3.200000 1  C0              Rx   d 8 C3 32 13 08 00 00 00 00
 3.200000 1  1B0             Rx   d 4 DE 7F E6 17
 3.200000 1  D0              Rx   d 8 CD C5 6C 71 4F 20 16 01
 3.200000 1  A0              Rx   d 8 1B 1D 27 47 55 7D A5 7A
 3.210000 1  C0              Rx   d 8 B1 32 23 06 00 00 00 00
 3.210000 1  1B0             Rx   d 4 DA 7F D5 27
 3.220000 1  C0              Rx   d 8 DE 32 33 43 00 00 00 00
 3.220000 1  1B0             Rx   d 4 D9 7F F6 37
 3.220000 1  D0              Rx   d 8 3F 45 5E D1 50 D8 16 02
 3.220000 1  A0              Rx   d 8 FB 1C 40 47 5A 7D A1 7A
 3.230000 1  C0              Rx   d 8 F5 32 43 6A 00 00 00 00
 3.230000 1  1B0             Rx   d 4 DA 7F 0D 48
 3.240000 1  C0              Rx   d 8 BD 32 53 42 00 00 00 00
 3.240000 1  1B0             Rx   d 4 DC 7F 17 58
 3.240000 1  D0              Rx   d 8 D6 C4 62 F1 59 F8 16 03
 3.240000 1  A0              Rx   d 8 D0 1C 28 47 55 7D A9 7A
 3.250000 1  C0              Rx   d 8 86 32 63 1B 00 00 00 00
 3.250000 1  1B0             Rx   d 4 E1 7F 2F 68
 3.260000 1  C0              Rx   d 8 D5 32 73 7A 00 00 00 00
 3.260000 1  1B0             Rx   d 4 E3 7F 1A 78
 3.260000 1  D0              Rx   d 8 3C 45 6D 21 5A 38 16 04
 3.260000 1  A0              Rx   d 8 A4 1C FC 46 44 7D A0 7A
 3.270000 1  C0              Rx   d 8 AE 32 83 63 00 00 00 00
 3.270000 1  1B0             Rx   d 4 E4 7F 09 88
 3.280000 1  C0              Rx   d 8 11 33 93 D7 00 00 00 00
 3.280000 1  1B0             Rx   d 4 E1 7F E3 97
 3.280000 1  D0              Rx   d 8 B0 05 68 21 50 80 15 05
 3.280000 1  A0              Rx   d 8 7A 1C 05 47 3E 7D AD 7A
 3.290000 1  C0              Rx   d 8 9C 32 A3 71 00 00 00 00
 3.290000 1  1B0             Rx   d 4 DF 7F E9 A7
 3.300000 1  C0              Rx   d 8 C1 32 B3 A6 00 00 00 00
 3.300000 1  1B0             Rx   d 4 DA 7F C7 B7
 3.300000 1  D0              Rx   d 8 57 45 59 B1 4C 08 16 06
 3.300000 1  A0              Rx   d 8 51 1C 29 47 5C 7D 9A 7A
 3.310000 1  C0              Rx   d 8 A1 32 C3 96 00 00 00 00
 3.310000 1  1B0             Rx   d 4 D8 7F F2 C7
 3.320000 1  C0              Rx   d 8 FB 32 D3 00 00 00 00 00
 3.320000 1  1B0             Rx   d 4 DB 7F 1D D8
 3.320000 1  D0              Rx   d 8 C4 84 56 B1 54 7C 16 07
 3.320000 1  A0              Rx   d 8 21 1C 38 47 5F 7D B0 7A
 3.330000 1  C0              Rx   d 8 0B 33 E3 21 00 00 00 00
 3.330000 1  1B0             Rx   d 4 DD 7F 12 E8
 3.340000 1  C0              Rx   d 8 BF 32 F3 E4 00 00 00 00
 3.340000 1  1B0             Rx   d 4 E2 7F 31 F8
 3.340000 1  D0              Rx   d 8 E9 84 61 91 59 F0 15 08
 3.340000 1  A0              Rx   d 8 F2 1B 07 47 43 7D B0 7A
 3.350000 1  C0              Rx   d 8 C5 32 03 FA 00 00 00 00
 3.350000 1  1B0             Rx   d 4 E6 7F 2E 08
 3.360000 1  C0              Rx   d 8 E6 32 13 2B 00 00 00 00
 3.360000 1  1B0             Rx   d 4 E6 7F F8 17
 3.360000 1  D0              Rx   d 8 75 45 63 81 51 24 15 09
 3.360000 1  A0              Rx   d 8 CA 1B E6 46 2D 7D AA 7A
 3.370000 1  C0              Rx   d 8 56 32 23 AB 00 00 00 00
 3.370000 1  1B0             Rx   d 4 E5 7F F7 27
 3.380000 1  C0              Rx   d 8 FF 32 33 64 00 00 00 00
 3.380000 1  1B0             Rx   d 4 DC 7F A9 37
 3.380000 1  D0              Rx   d 8 67 45 55 61 4A 24 15 0A
 3.380000 1  A0              Rx   d 8 A5 1B 13 47 43 7D A4 7A
 3.390000 1  C0              Rx   d 8 C5 32 43 3A 00 00 00 00
 3.390000 1  1B0             Rx   d 4 DA 7F EF 47
 3.400000 1  C0              Rx   d 8 B6 32 53 3B 00 00 00 00
 3.400000 1  1B0             Rx   d 4 DA 7F F9 57
 3.400000 1  D0              Rx   d 8 CA 04 4D 31 4F DC 15 0B
 3.400000 1  A0              Rx   d 8 7D 1B 2A 47 4D 7D A3 7A
 3.410000 1  C0              Rx   d 8 F0 32 63 85 00 00 00 00
 3.410000 1  1B0             Rx   d 4 DA 7F 02 68
 3.420000 1  C0              Rx   d 8 BE 32 73 63 00 00 00 00
 3.420000 1  1B0             Rx   d 4 DC 7F 15 78
 3.420000 1  D0              Rx   d 8 A0 04 55 E1 56 BC 15 0C
 3.420000 1  A0              Rx   d 8 52 1B 28 47 46 7D A7 7A
 3.430000 1  C0              Rx   d 8 B6 32 83 6B 00 00 00 00
 3.430000 1  1B0             Rx   d 4 E3 7F 47 88
 3.440000 1  C0              Rx   d 8 DE 32 93 A3 00 00 00 00
 3.440000 1  1B0             Rx   d 4 E8 7F 35 98
 3.440000 1  D0              Rx   d 8 26 05 5C F1 52 C0 14 0D
 3.440000 1  A0              Rx   d 8 1E 1B F2 46 2B 7D B1 7A
 3.450000 1  C0              Rx   d 8 9D 32 A3 72 00 00 00 00
 3.450000 1  1B0             Rx   d 4 E8 7F 03 A8
 3.460000 1  C0              Rx   d 8 02 33 B3 E8 00 00 00 00
 3.460000 1  1B0             Rx   d 4 E5 7F D9 B7
 3.460000 1  D0              Rx   d 8 64 85 51 E1 49 7C 14 0E
 3.460000 1  A0              Rx   d 8 FE 1A E8 46 34 7D A8 7A
 3.470000 1  C0              Rx   d 8 CE 32 C3 C3 00 00 00 00
 3.470000 1  1B0             Rx   d 4 E5 7F 04 C8
 3.480000 1  C0              Rx   d 8 CF 32 D3 D4 00 00 00 00
 3.480000 1  1B0             Rx   d 4 DC 7F A5 D7
 3.480000 1  D0              Rx   d 8 E2 C4 44 71 4A 10 15 0F
 3.480000 1  A0              Rx   d 8 D4 1A 29 47 46 7D 9F 7A
 3.490000 1  C0              Rx   d 8 B8 32 E3 CD 00 00 00 00
 3.490000 1  1B0             Rx   d 4 DB 7F FC E7
 3.500000 1  C0              Rx   d 8 BA 32 F3 DF 00 00 00 00
 3.500000 1  1B0             Rx   d 4 D9 7F E9 F7
 3.500000 1  D0              Rx   d 8 7C 04 47 01 53 4C 15 00
 3.500000 1  A0              Rx   d 8 A6 1A 46 47 48 7D A8 7A
 3.510000 1  C0              Rx   d 8 CA 32 03 FF 00 00 00 00
 3.510000 1  1B0             Rx   d 4 DC 7F 1A 08
 3.520000 1  C0              Rx   d 8 AA 32 13 EF 00 00 00 00
 3.520000 1  1B0             Rx   d 4 E1 7F 35 18
 3.520000 1  D0              Rx   d 8 D3 C4 51 91 53 8C 14 01
 3.520000 1  A0              Rx   d 8 7E 1A FB 46 46 7D A5 7A
 3.530000 1  C0              Rx   d 8 D3 32 23 28 00 00 00 00
 3.530000 1  1B0             Rx   d 4 EA 7F 54 28
 3.540000 1  C0              Rx   d 8 0D 33 33 73 00 00 00 00
 3.540000 1  1B0             Rx   d 4 E9 7F F8 37
 3.540000 1  D0              Rx   d 8 42 05 4D 51 4A E0 13 02
 3.540000 1  A0              Rx   d 8 4A 1A E4 46 30 7D AF 7A
 3.550000 1  C0              Rx   d 8 BC 32 43 31 00 00 00 00
 3.550000 1  1B0             Rx   d 4 E6 7F E3 47
 3.560000 1  C0              Rx   d 8 AA 32 53 2F 00 00 00 00
 3.560000 1  1B0             Rx   d 4 E3 7F E5 57
 3.560000 1  D0              Rx   d 8 F7 44 3F B1 46 4C 14 03
 3.560000 1  A0              Rx   d 8 26 1A 0A 47 39 7D A7 7A
 3.570000 1  C0              Rx   d 8 D1 32 63 66 00 00 00 00
 3.570000 1  1B0             Rx   d 4 DE 7F CC 67
 3.580000 1  C0              Rx   d 8 D3 32 73 78 00 00 00 00
 3.580000 1  1B0             Rx   d 4 DC 7F EC 77
 3.580000 1  D0              Rx   d 8 6B C4 3B E1 4D C8 14 04
 3.580000 1  A0              Rx   d 8 08 1A 20 47 4C 7D A7 7A
 3.590000 1  C0              Rx   d 8 B2 32 83 67 00 00 00 00
 3.590000 1  1B0             Rx   d 4 DE 7F 10 88
 3.600000 1  C0              Rx   d 8 AE 32 93 73 00 00 00 00
 3.600000 1  1B0             Rx   d 4 DE 7F 08 98
 3.600000 1  D0              Rx   d 8 83 44 46 81 52 4C 14 05
 3.600000 1  A0              Rx   d 8 CD 19 1F 47 4C 7D B1 7A
 3.610000 1  C0              Rx   d 8 C5 32 A3 9A 00 00 00 00
 3.610000 1  1B0             Rx   d 4 E1 7F 1E A8
 3.620000 1  C0              Rx   d 8 8A 32 B3 6F 00 00 00 00
 3.620000 1  1B0             Rx   d 4 E9 7F 4A B8
 3.620000 1  D0              Rx   d 8 07 C5 47 C1 4B 74 13 06
 3.620000 1  A0              Rx   d 8 AE 19 D9 46 31 7D A8 7A
 3.630000 1  C0              Rx   d 8 D0 32 C3 C5 00 00 00 00
 3.630000 1  1B0             Rx   d 4 E8 7F F6 C7
 3.640000 1  C0              Rx   d 8 D5 32 D3 DA 00 00 00 00
 3.640000 1  1B0             Rx   d 4 E8 7F FF D7
 3.640000 1  D0              Rx   d 8 FF 04 3B 91 44 80 13 07
 3.640000 1  A0              Rx   d 8 79 19 F4 46 22 7D AC 7A
 3.650000 1  C0              Rx   d 8 BA 32 E3 CF 00 00 00 00
 3.650000 1  1B0             Rx   d 4 E2 7F C9 E7
 3.660000 1  C0              Rx   d 8 05 33 F3 2B 00 00 00 00
 3.660000 1  1B0             Rx   d 4 DF 7F E3 F7
 3.660000 1  D0              Rx   d 8 70 44 33 C1 48 20 14 08
 3.660000 1  A0              Rx   d 8 58 19 14 47 44 7D A6 7A
 3.670000 1  C0              Rx   d 8 DF 32 03 14 00 00 00 00
 3.670000 1  1B0             Rx   d 4 DF 7F FD 07
 3.680000 1  C0              Rx   d 8 CB 32 13 10 00 00 00 00
 3.680000 1  1B0             Rx   d 4 DF 7F 04 18
 3.680000 1  D0              Rx   d 8 43 44 39 01 50 F8 13 09
 3.680000 1  A0              Rx   d 8 25 19 22 47 43 7D B0 7A
 3.690000 1  C0              Rx   d 8 C8 32 23 1D 00 00 00 00
 3.690000 1  1B0             Rx   d 4 DE 7F EF 27
 3.700000 1  C0              Rx   d 8 CB 32 33 30 00 00 00 00
 3.700000 1  1B0             Rx   d 4 E4 7F 44 38
 3.700000 1  D0              Rx   d 8 BA 84 3F D1 4C 28 13 0A
 3.700000 1  A0              Rx   d 8 F1 18 06 47 36 7D A2 7A
 3.710000 1  C0              Rx   d 8 C0 32 43 35 00 00 00 00
 3.710000 1  1B0             Rx   d 4 E9 7F 2E 48
 3.720000 1  C0              Rx   d 8 E5 32 53 6A 00 00 00 00
 3.720000 1  1B0             Rx   d 4 EB 7F 12 58
 3.720000 1  D0              Rx   d 8 F3 04 37 F1 43 D0 12 0B
 3.720000 1  A0              Rx   d 8 D1 18 C1 46 2D 7D AB 7A
 3.730000 1  C0              Rx   d 8 24 33 63 BA 00 00 00 00
 3.730000 1  1B0             Rx   d 4 E6 7F CF 67
 3.740000 1  C0              Rx   d 8 E8 32 73 8D 00 00 00 00
 3.740000 1  1B0             Rx   d 4 E4 7F EA 77
 3.740000 1  D0              Rx   d 8 84 04 2B 21 44 58 13 0C
 3.740000 1  A0              Rx   d 8 A3 18 E5 46 3A 7D A5 7A
 3.750000 1  C0              Rx   d 8 B5 32 83 6A 00 00 00 00
 3.750000 1  1B0             Rx   d 4 E1 7F E8 87
 3.760000 1  C0              Rx   d 8 EF 32 93 B4 00 00 00 00
 3.760000 1  1B0             Rx   d 4 DE 7F E1 97
 3.760000 1  D0              Rx   d 8 1C C4 2C F1 4B 94 13 0D
 3.760000 1  A0              Rx   d 8 7F 18 35 47 37 7D B5 7A
 3.770000 1  C0              Rx   d 8 85 32 A3 5A 00 00 00 00
 3.770000 1  1B0             Rx   d 4 E0 7F 10 A8
 3.780000 1  C0              Rx   d 8 99 32 B3 7E 00 00 00 00
 3.780000 1  1B0             Rx   d 4 DE 7F EC B7
 3.780000 1  D0              Rx   d 8 6A 84 35 F1 4C F0 12 0E
 3.780000 1  A0              Rx   d 8 57 18 15 47 3C 7D B0 7A
 3.790000 1  C0              Rx   d 8 F9 32 C3 EE 00 00 00 00
 3.790000 1  1B0             Rx   d 4 E6 7F 51 C8
 3.800000 1  C0              Rx   d 8 CE 32 D3 D3 00 00 00 00
 3.800000 1  1B0             Rx   d 4 E8 7F 10 D8
 3.800000 1  D0              Rx   d 8 CF 84 32 91 44 44 12 0F
 3.800000 1  A0              Rx   d 8 2A 18 E1 46 30 7D A5 7A
 3.810000 1  C0              Rx   d 8 C5 32 E3 DA 00 00 00 00
 3.810000 1  1B0             Rx   d 4 EA 7F 1B E8
 3.820000 1  C0              Rx   d 8 C5 32 F3 EA 00 00 00 00
 3.820000 1  1B0             Rx   d 4 EA 7F FE F7
 3.820000 1  D0              Rx   d 8 95 44 25 D1 40 98 12 00
 3.820000 1  A0              Rx   d 8 04 18 E1 46 22 7D AC 7A
 3.830000 1  C0              Rx   d 8 0B 33 03 41 00 00 00 00
 3.830000 1  1B0             Rx   d 4 E5 7F CF 07
 3.840000 1  C0              Rx   d 8 B8 32 13 FD 00 00 00 00
 3.840000 1  1B0             Rx   d 4 E5 7F FA 17
 3.840000 1  D0              Rx   d 8 0E 44 21 21 47 10 13 01
 3.840000 1  A0              Rx   d 8 D5 17 FF 46 38 7D AB 7A
 3.850000 1  C0              Rx   d 8 AE 32 23 03 00 00 00 00
 3.850000 1  1B0             Rx   d 4 DE 7F BA 27
 3.860000 1  C0              Rx   d 8 CF 32 33 34 00 00 00 00
 3.860000 1  1B0             Rx   d 4 E0 7F 1A 38
 3.860000 1  D0              Rx   d 8 1D 44 2A A1 4B B0 12 02
 3.860000 1  A0              Rx   d 8 AE 17 32 47 41 7D AA 7A
 3.870000 1  C0              Rx   d 8 C4 32 43 39 00 00 00 00
 3.870000 1  1B0             Rx   d 4 DF 7F F0 47
 3.880000 1  C0              Rx   d 8 D0 32 53 55 00 00 00 00
 3.880000 1  1B0             Rx   d 4 E7 7F 53 58
 3.880000 1  D0              Rx   d 8 93 84 2C A1 45 DC 11 03
 3.880000 1  A0              Rx   d 8 89 17 F8 46 3D 7D AF 7A
 3.890000 1  C0              Rx   d 8 A6 32 63 3B 00 00 00 00
 3.890000 1  1B0             Rx   d 4 E9 7F 13 68
 3.900000 1  C0              Rx   d 8 C2 32 73 67 00 00 00 00
 3.900000 1  1B0             Rx   d 4 EA 7F 12 78
 3.900000 1  D0              Rx   d 8 9A 84 21 E1 3E D4 11 04
 3.900000 1  A0              Rx   d 8 56 17 B7 46 24 7D AD 7A
 3.910000 1  C0              Rx   d 8 C7 32 83 7C 00 00 00 00
 3.910000 1  1B0             Rx   d 4 EB 7F 02 88
 3.920000 1  C0              Rx   d 8 C8 32 93 8D 00 00 00 00
 3.920000 1  1B0             Rx   d 4 E6 7F D4 97
 3.920000 1  D0              Rx   d 8 16 44 18 51 42 64 12 05
 3.920000 1  A0              Rx   d 8 35 17 EF 46 2A 7D A9 7A
 3.930000 1  C0              Rx   d 8 C2 32 A3 97 00 00 00 00
 3.930000 1  1B0             Rx   d 4 E1 7F CE A7
 3.940000 1  C0              Rx   d 8 D6 32 B3 BB 00 00 00 00
 3.940000 1  1B0             Rx   d 4 DF 7F E7 B7
 3.940000 1  D0              Rx   d 8 E5 03 1E F1 48 48 12 06
 3.940000 1  A0              Rx   d 8 00 17 15 47 3C 7D A7 7A
 3.950000 1  C0              Rx   d 8 ED 32 C3 E2 00 00 00 00
 3.950000 1  1B0             Rx   d 4 E0 7F 0B C8
 3.960000 1  C0              Rx   d 8 A5 32 D3 AA 00 00 00 00
 3.960000 1  1B0             Rx   d 4 E3 7F 20 D8
 3.960000 1  D0              Rx   d 8 4E C4 23 81 46 80 11 07
 3.960000 1  A0              Rx   d 8 E0 16 17 47 3A 7D AD 7A
 3.970000 1  C0              Rx   d 8 BC 32 E3 D1 00 00 00 00
 3.970000 1  1B0             Rx   d 4 E5 7F 14 E8
 3.980000 1  C0              Rx   d 8 CA 32 F3 EF 00 00 00 00
 3.980000 1  1B0             Rx   d 4 E6 7F 0E F8
 3.980000 1  D0              Rx   d 8 87 84 1C 71 3E 20 11 08
 3.980000 1  A0              Rx   d 8 B3 16 F4 46 2F 7D AC 7A
 3.990000 1  C0              Rx   d 8 C5 32 03 FA 00 00 00 00
 3.990000 1  1B0             Rx   d 4 EE 7F 4C 08
 4.000000 1  C0              Rx   d 8 A4 32 13 E9 00 00 00 00
 4.000000 1  1B0             Rx   d 4 EC 7F EF 17
 4.000000 1  D0              Rx   d 8 24 C4 10 11 3E 98 11 09
 4.000000 1  A0              Rx   d 8 84 16 B8 46 1F 7D A9 7A
 4.010000 1  C0              Rx   d 8 CD 32 23 22 00 00 00 00
 4.010000 1  1B0             Rx   d 4 E8 7F D7 27
 4.020000 1  C0              Rx   d 8 9E 32 33 03 00 00 00 00
 4.020000 1  1B0             Rx   d 4 E5 7F E0 37
 4.020000 1  D0              Rx   d 8 BF 03 12 01 45 DC 11 0A
 4.020000 1  A0              Rx   d 8 56 16 0B 47 36 7D A7 7A
 4.030000 1  C0              Rx   d 8 CB 32 43 40 00 00 00 00
 4.030000 1  1B0             Rx   d 4 DD 7F B4 47
 4.040000 1  C0              Rx   d 8 B2 32 53 37 00 00 00 00
 4.040000 1  1B0             Rx   d 4 E2 7F 29 58
 4.040000 1  D0              Rx   d 8 FD C3 1A 61 46 44 11 0B
 4.040000 1  A0              Rx   d 8 32 16 22 47 47 7D 9D 7A
 4.050000 1  C0              Rx   d 8 A4 32 63 39 00 00 00 00
 4.050000 1  1B0             Rx   d 4 E1 7F F7 67
 4.060000 1  C0              Rx   d 8 83 32 73 28 00 00 00 00
 4.060000 1  1B0             Rx   d 4 E6 7F 37 78
 4.060000 1  D0              Rx   d 8 64 84 17 01 3F A0 10 0C
 4.060000 1  A0              Rx   d 8 06 16 0E 47 2C 7D A3 7A
 4.070000 1  C0              Rx   d 8 D9 32 83 8E 00 00 00 00
 4.070000 1  1B0             Rx   d 4 EA 7F 23 88
 4.080000 1  C0              Rx   d 8 C6 32 93 8B 00 00 00 00
 4.080000 1  1B0             Rx   d 4 ED 7F 26 98
 4.080000 1  D0              Rx   d 8 2F 84 0B D1 3A E4 10 0D
 4.080000 1  A0              Rx   d 8 D6 15 D0 46 27 7D A3 7A
 4.090000 1  C0              Rx   d 8 D2 32 A3 A7 00 00 00 00
 4.090000 1  1B0             Rx   d 4 EF 7F 0C A8
 4.100000 1  C0              Rx   d 8 AF 32 B3 94 00 00 00 00
 4.100000 1  1B0             Rx   d 4 E9 7F C6 B7
 4.100000 1  D0              Rx   d 8 B7 03 08 71 40 54 11 0E
 4.100000 1  A0              Rx   d 8 AF 15 C9 46 2B 7D AE 7A
 4.110000 1  C0              Rx   d 8 FC 32 C3 F1 00 00 00 00
 4.110000 1  1B0             Rx   d 4 E6 7F E3 C7
 4.120000 1  C0              Rx   d 8 E9 32 D3 EE 00 00 00 00
 4.120000 1  1B0             Rx   d 4 E1 7F CC D7
 4.120000 1  D0              Rx   d 8 B9 83 0E D1 44 00 11 0F
 4.120000 1  A0              Rx   d 8 8C 15 C9 46 38 7D B7 7A
 4.130000 1  C0              Rx   d 8 C4 32 E3 D9 00 00 00 00
 4.130000 1  1B0             Rx   d 4 E1 7F 04 E8
 4.140000 1  C0              Rx   d 8 FE 32 F3 23 00 00 00 00
 4.140000 1  1B0             Rx   d 4 E5 7F 2A F8
 4.140000 1  D0              Rx   d 8 26 C4 10 B1 3F 3C 10 00
 4.140000 1  A0              Rx   d 8 58 15 C9 46 30 7D A7 7A
 4.150000 1  C0              Rx   d 8 AE 32 03 E3 00 00 00 00
 4.150000 1  1B0             Rx   d 4 E6 7F 07 08
 4.160000 1  C0              Rx   d 8 F7 32 13 3C 00 00 00 00
 4.160000 1  1B0             Rx   d 4 E9 7F 24 18
 4.160000 1  D0              Rx   d 8 2E 84 06 21 39 18 10 01
 4.160000 1  A0              Rx   d 8 2D 15 C9 46 27 7D B0 7A
 4.170000 1  C0              Rx   d 8 EB 32 23 40 00 00 00 00
 4.170000 1  1B0             Rx   d 4 ED 7F 1F 28
 4.180000 1  C0              Rx   d 8 BC 32 33 21 00 00 00 00
 4.180000 1  1B0             Rx   d 4 ED 7F 08 38
 4.180000 1  D0              Rx   d 8 B9 43 FE B0 3B A0 10 02
 4.180000 1  A0              Rx   d 8 07 15 C9 46 1E 7D AC 7A
 4.190000 1  C0              Rx   d 8 9A 32 43 0F 00 00 00 00
 4.190000 1  1B0             Rx   d 4 EA 7F DF 47
 4.200000 1  C0              Rx   d 8 C1 32 73 66 00 00 00 00
 4.200000 1  1B0             Rx   d 4 E4 7F C9 57
 4.200000 1  D0              Rx   d 8 84 83 02 01 42 9C 10 03
 4.200000 1  A0              Rx   d 8 D5 14 C9 46 1F 7D B1 7A
 4.210000 1  C0              Rx   d 8 C4 32 A3 99 00 00 00 00
 4.210000 1  1B0             Rx   d 4 E3 7F F2 67
 4.220000 1  C0              Rx   d 8 AE 32 D3 B3 00 00 00 00
 4.220000 1  1B0             Rx   d 4 E0 7F E6 77
 4.220000 1  D0              Rx   d 8 E0 83 08 21 40 EC 0F 04
 4.220000 1  A0              Rx   d 8 AD 14 C9 46 2C 7D A4 7A
 4.230000 1  C0              Rx   d 8 B3 32 03 E8 00 00 00 00
 4.230000 1  1B0             Rx   d 4 E2 7F 12 88
 4.240000 1  C0              Rx   d 8 CA 32 33 2F 00 00 00 00
 4.240000 1  1B0             Rx   d 4 E6 7F 24 98
 4.240000 1  D0              Rx   d 8 1C 84 02 81 38 84 0F 05
 4.240000 1  A0              Rx   d 8 80 14 C9 46 24 7D A7 7A
 4.250000 1  C0              Rx   d 8 C9 32 63 5E 00 00 00 00
 4.250000 1  1B0             Rx   d 4 EB 7F 34 A8
 4.260000 1  C0              Rx   d 8 C6 32 93 8B 00 00 00 00
 4.260000 1  1B0             Rx   d 4 EF 7F 25 B8
 4.260000 1  D0              Rx   d 8 C4 03 F7 C0 37 F4 0F 06
 4.260000 1  A0              Rx   d 8 5A 14 C9 46 17 7D A5 7A
 4.270000 1  C0              Rx   d 8 BE 32 C3 B3 00 00 00 00
 4.270000 1  1B0             Rx   d 4 EF 7F 04 C8
 4.280000 1  C0              Rx   d 8 70 32 F3 95 00 00 00 00
 4.280000 1  1B0             Rx   d 4 EB 7F D7 D7
 4.280000 1  D0              Rx   d 8 66 83 F6 30 3E 30 10 07
 4.280000 1  A0              Rx   d 8 38 14 C9 46 1B 7D A6 7A
 4.290000 1  C0              Rx   d 8 D4 32 23 29 00 00 00 00
 4.290000 1  1B0             Rx   d 4 E8 7F E6 E7
 4.300000 1  C0              Rx   d 8 B8 32 53 3D 00 00 00 00
 4.300000 1  1B0             Rx   d 4 E3 7F C9 F7
 4.300000 1  D0              Rx   d 8 96 03 FE A0 3F 90 0F 08
 4.300000 1  A0              Rx   d 8 0B 14 C9 46 32 7D A7 7A
 4.310000 1  C0              Rx   d 8 E2 32 83 97 00 00 00 00
 4.310000 1  1B0             Rx   d 4 E2 7F F8 07
 4.320000 1  C0              Rx   d 8 E0 32 B3 C5 00 00 00 00
 4.320000 1  1B0             Rx   d 4 E4 7F 11 18
 4.320000 1  D0              Rx   d 8 F0 C3 FC 10 39 04 0F 09
 4.320000 1  A0              Rx   d 8 DD 13 C9 46 2C 7D A7 7A
 4.330000 1  C0              Rx   d 8 96 32 E3 AB 00 00 00 00
 4.330000 1  1B0             Rx   d 4 E7 7F 1D 28
 4.340000 1  C0              Rx   d 8 F4 32 13 39 00 00 00 00
 4.340000 1  1B0             Rx   d 4 EB 7F 26 38
 4.340000 1  D0              Rx   d 8 C9 43 F2 F0 34 38 0F 0A
 4.340000 1  A0              Rx   d 8 B2 13 C9 46 25 7D A3 7A
 4.350000 1  C0              Rx   d 8 E7 32 43 5C 00 00 00 00
 4.350000 1  1B0             Rx   d 4 EE 7F 1E 48
 4.360000 1  C0              Rx   d 8 CB 32 73 70 00 00 00 00
 4.360000 1  1B0             Rx   d 4 EE 7F 00 58
 4.360000 1  D0              Rx   d 8 59 83 EC C0 39 90 0F 0B
 4.360000 1  A0              Rx   d 8 89 13 C9 46 19 7D B1 7A
 4.370000 1  C0              Rx   d 8 8E 32 A3 63 00 00 00 00
 4.370000 1  1B0             Rx   d 4 F0 7F 1C 68
 4.380000 1  C0              Rx   d 8 AA 32 D3 AF 00 00 00 00
 4.380000 1  1B0             Rx   d 4 EB 7F CC 77
 4.380000 1  D0              Rx   d 8 55 83 F2 00 3E 40 0F 0C
 4.380000 1  A0              Rx   d 8 68 13 C9 46 1E 7D A3 7A
 4.390000 1  C0              Rx   d 8 B8 32 03 ED 00 00 00 00
 4.390000 1  1B0             Rx   d 4 E4 7F B9 87
 4.400000 1  C0              Rx   d 8 B7 32 33 1C 00 00 00 00
 4.400000 1  1B0             Rx   d 4 E4 7F FD 97
 4.400000 1  D0              Rx   d 8 B9 43 F6 80 39 90 0E 0D
 4.400000 1  A0              Rx   d 8 31 13 C9 46 2E 7D A4 7A
 4.410000 1  C0              Rx   d 8 B9 32 63 4E 00 00 00 00
 4.410000 1  1B0             Rx   d 4 E5 7F 0C A8
 4.420000 1  C0              Rx   d 8 D2 32 93 97 00 00 00 00
 4.420000 1  1B0             Rx   d 4 E7 7F 10 B8
 4.420000 1  D0              Rx   d 8 C5 03 EC 70 33 80 0E 0E
 4.420000 1  A0              Rx   d 8 0A 13 C9 46 24 7D A9 7A
 4.430000 1  C0              Rx   d 8 D4 32 C3 C9 00 00 00 00
 4.430000 1  1B0             Rx   d 4 EC 7F 34 C8
 4.440000 1  C0              Rx   d 8 B8 32 F3 DD 00 00 00 00
 4.440000 1  1B0             Rx   d 4 EE 7F 1A D8
 4.440000 1  D0              Rx   d 8 59 C3 E4 50 35 E4 0E 0F
 4.440000 1  A0              Rx   d 8 DE 12 C9 46 1A 7D AD 7A
 4.450000 1  C0              Rx   d 8 EB 32 23 40 00 00 00 00
 4.450000 1  1B0             Rx   d 4 F0 7F 11 E8
 4.460000 1  C0              Rx   d 8 CD 32 53 52 00 00 00 00
 4.460000 1  1B0             Rx   d 4 EE 7F E9 F7
 4.460000 1  D0              Rx   d 8 27 C3 E7 20 3B E8 0E 00
 4.460000 1  A0              Rx   d 8 B6 12 C9 46 17 7D AC 7A
 4.470000 1  C0              Rx   d 8 C6 32 83 7B 00 00 00 00
 4.470000 1  1B0             Rx   d 4 EB 7F E7 07
 4.480000 1  C0              Rx   d 8 E3 32 B3 C8 00 00 00 00
 4.480000 1  1B0             Rx   d 4 E5 7F BD 17
 4.480000 1  D0              Rx   d 8 71 83 ED D0 39 44 0E 01
 4.480000 1  A0              Rx   d 8 84 12 C9 46 31 7D AF 7A
 4.490000 1  C0              Rx   d 8 CF 32 E3 E4 00 00 00 00
 4.490000 1  1B0             Rx   d 4 E5 7F 01 28
 4.500000 1  C0              Rx   d 8 CB 32 13 10 00 00 00 00
 4.500000 1  1B0             Rx   d 4 E7 7F 14 38
 4.500000 1  D0              Rx   d 8 AD 83 E7 E0 32 E8 0D 02
 4.500000 1  A0              Rx   d 8 5A 12 C9 46 32 7D B0 7A
 4.510000 1  C0              Rx   d 8 B4 32 43 29 00 00 00 00
 4.510000 1  1B0             Rx   d 4 E7 7F FF 47
 4.520000 1  C0              Rx   d 8 B4 32 73 59 00 00 00 00
 4.520000 1  1B0             Rx   d 4 EB 7F 31 58
 4.520000 1  D0              Rx   d 8 63 03 DD B0 31 38 0E 03
 4.520000 1  A0              Rx   d 8 38 12 C9 46 28 7D 9A 7A
 4.530000 1  C0              Rx   d 8 E7 32 A3 BC 00 00 00 00
 4.530000 1  1B0             Rx   d 4 EC 7F 0A 68
 4.540000 1  C0              Rx   d 8 D9 32 D3 DE 00 00 00 00
 4.540000 1  1B0             Rx   d 4 F2 7F 36 78
 4.540000 1  D0              Rx   d 8 09 43 DC 20 37 74 0E 04
 4.540000 1  A0              Rx   d 8 0A 12 C9 46 11 7D A0 7A
 4.550000 1  C0              Rx   d 8 0C 33 03 42 00 00 00 00
 4.550000 1  1B0             Rx   d 4 EE 7F DA 87
 4.560000 1  C0              Rx   d 8 05 33 33 6B 00 00 00 00
 4.560000 1  1B0             Rx   d 4 EE 7F FD 97
 4.560000 1  D0              Rx   d 8 2E C3 E2 E0 38 F4 0D 05
 4.560000 1  A0              Rx   d 8 DC 11 C9 46 1C 7D B2 7A
 4.570000 1  C0              Rx   d 8 84 32 63 19 00 00 00 00
 4.570000 1  1B0             Rx   d 4 E6 7F B2 A7
 4.580000 1  C0              Rx   d 8 EC 32 93 B1 00 00 00 00
 4.580000 1  1B0             Rx   d 4 E3 7F E0 B7
 4.580000 1  D0              Rx   d 8 83 43 E1 40 33 68 0D 06
 4.580000 1  A0              Rx   d 8 B3 11 C9 46 2B 7D B1 7A
 4.590000 1  C0              Rx   d 8 F1 32 C3 E6 00 00 00 00
 4.590000 1  1B0             Rx   d 4 E7 7F 2D C8
 4.600000 1  C0              Rx   d 8 B8 32 D3 BD 00 00 00 00
 4.600000 1  1B0             Rx   d 4 E5 7F EC D7
 4.600000 1  D0              Rx   d 8 65 C3 D7 20 2F 78 0D 07
 4.600000 1  A0              Rx   d 8 90 11 EB 46 22 7D A8 7A
 4.610000 1  C0              Rx   d 8 E2 32 E3 F7 00 00 00 00
 4.610000 1  1B0             Rx   d 4 ED 7F 4C E8
 4.620000 1  C0              Rx   d 8 BB 32 F3 E0 00 00 00 00
 4.620000 1  1B0             Rx   d 4 F1 7F 26 F8
 4.620000 1  D0              Rx   d 8 01 83 D2 30 33 D8 0D 08
 4.620000 1  A0              Rx   d 8 5D 11 99 46 0A 7D 9F 7A
 4.630000 1  C0              Rx   d 8 E9 32 03 1E 00 00 00 00
 4.630000 1  1B0             Rx   d 4 F2 7F 0E 08
 4.640000 1  C0              Rx   d 8 E4 32 13 29 00 00 00 00
 4.640000 1  1B0             Rx   d 4 EF 7F E3 17
 4.640000 1  D0              Rx   d 8 F5 42 D7 00 37 9C 0D 09
 4.640000 1  A0              Rx   d 8 37 11 BB 46 11 7D A8 7A
 4.650000 1  C0              Rx   d 8 C0 32 23 15 00 00 00 00
 4.650000 1  1B0             Rx   d 4 EE 7F F6 27
 4.660000 1  C0              Rx   d 8 F6 32 33 5B 00 00 00 00
 4.660000 1  1B0             Rx   d 4 EA 7F D9 37
 4.660000 1  D0              Rx   d 8 46 03 DA 40 33 08 0D 0A
 4.660000 1  A0              Rx   d 8 0F 11 E2 46 1E 7D AD 7A
 4.670000 1  C0              Rx   d 8 C9 32 43 3E 00 00 00 00
 4.670000 1  1B0             Rx   d 4 E5 7F C8 47
 4.680000 1  C0              Rx   d 8 F3 32 53 78 00 00 00 00
 4.680000 1  1B0             Rx   d 4 E4 7F FC 57
 4.680000 1  D0              Rx   d 8 59 83 D2 F0 2D CC 0C 0B
 4.680000 1  A0              Rx   d 8 E8 10 FE 46 2C 7D A7 7A
 4.690000 1  C0              Rx   d 8 94 32 63 29 00 00 00 00
 4.690000 1  1B0             Rx   d 4 E6 7F 0E 68
 4.700000 1  C0              Rx   d 8 C0 32 73 65 00 00 00 00
 4.700000 1  1B0             Rx   d 4 EE 7F 57 78
 4.700000 1  D0              Rx   d 8 FC 82 CA 00 2F 30 0D 0C
 4.700000 1  A0              Rx   d 8 B8 10 CB 46 1E 7D A1 7A
 4.710000 1  C0              Rx   d 8 AF 32 83 64 00 00 00 00
 4.710000 1  1B0             Rx   d 4 EF 7F 0B 88
 4.720000 1  C0              Rx   d 8 FE 32 93 C3 00 00 00 00
 4.720000 1  1B0             Rx   d 4 F4 7F 32 98
 4.720000 1  D0              Rx   d 8 C9 C2 CB D0 33 30 0D 0D
 4.720000 1  A0              Rx   d 8 8C 10 A2 46 0B 7D A3 7A
 4.730000 1  C0              Rx   d 8 B2 32 A3 87 00 00 00 00
 4.730000 1  1B0             Rx   d 4 F0 7F D6 A7
 4.740000 1  C0              Rx   d 8 D0 32 B3 B5 00 00 00 00
 4.740000 1  1B0             Rx   d 4 EC 7F D9 B7
 4.740000 1  D0              Rx   d 8 06 83 D1 40 33 A4 0C 0E
 4.740000 1  A0              Rx   d 8 63 10 D5 46 1C 7D A9 7A
 4.750000 1  C0              Rx   d 8 E4 32 C3 D9 00 00 00 00
 4.750000 1  1B0             Rx   d 4 EB 7F F6 C7
 4.760000 1  C0              Rx   d 8 9F 32 D3 A4 00 00 00 00
 4.760000 1  1B0             Rx   d 4 E9 7F E5 D7
 4.760000 1  D0              Rx   d 8 3E 03 CC 50 2D 40 0C 0F
 4.760000 1  A0              Rx   d 8 3B 10 F1 46 20 7D A2 7A
 4.770000 1  C0              Rx   d 8 AA 32 E3 BF 00 00 00 00
 4.770000 1  1B0             Rx   d 4 EA 7F 0A E8
 4.780000 1  C0              Rx   d 8 02 33 F3 28 00 00 00 00
 4.780000 1  1B0             Rx   d 4 EA 7F 00 F8
 4.780000 1  D0              Rx   d 8 01 43 C3 F0 2B 88 0C 00
 4.780000 1  A0              Rx   d 8 0B 10 E5 46 1A 7D B6 7A
 4.790000 1  C0              Rx   d 8 BA 32 03 EF 00 00 00 00
 4.790000 1  1B0             Rx   d 4 EC 7F 1C 08
 4.800000 1  C0              Rx   d 8 AE 32 13 F3 00 00 00 00
 4.800000 1  1B0             Rx   d 4 F0 7F 22 18
 4.800000 1  D0              Rx   d 8 AE 82 C1 60 30 AC 0C 01
 4.800000 1  A0              Rx   d 8 E7 0F A6 46 15 7D A8 7A
 4.810000 1  C0              Rx   d 8 AC 32 23 01 00 00 00 00
 4.810000 1  1B0             Rx   d 4 F3 7F 21 28
 4.820000 1  C0              Rx   d 8 D9 32 33 3E 00 00 00 00
 4.820000 1  1B0             Rx   d 4 F2 7F F5 37
 4.820000 1  D0              Rx   d 8 C9 02 C7 00 32 50 0C 02
 4.820000 1  A0              Rx   d 8 BA 0F B0 46 0D 7D AC 7A
 4.830000 1  C0              Rx   d 8 9F 32 43 14 00 00 00 00
 4.830000 1  1B0             Rx   d 4 F0 7F EF 47
 4.840000 1  C0              Rx   d 8 B8 32 53 3D 00 00 00 00
 4.840000 1  1B0             Rx   d 4 EA 7F C3 57
 4.840000 1  D0              Rx   d 8 11 C3 C6 10 2D C0 0B 03
 4.840000 1  A0              Rx   d 8 87 0F DA 46 14 7D A9 7A
 4.850000 1  C0              Rx   d 8 A8 32 63 3D 00 00 00 00
 4.850000 1  1B0             Rx   d 4 E7 7F E0 67
 4.860000 1  C0              Rx   d 8 A8 32 73 4D 00 00 00 00
 4.860000 1  1B0             Rx   d 4 E9 7F 17 78
 4.860000 1  D0              Rx   d 8 FB 42 BD 50 29 DC 0B 04
 4.860000 1  A0              Rx   d 8 66 0F EF 46 20 7D AD 7A
 4.870000 1  C0              Rx   d 8 F5 32 83 AA 00 00 00 00
 4.870000 1  1B0             Rx   d 4 EB 7F 0F 88
 4.880000 1  C0              Rx   d 8 E4 32 93 A9 00 00 00 00
 4.880000 1  1B0             Rx   d 4 EE 7F 21 98
 4.880000 1  D0              Rx   d 8 A3 42 B8 50 2C 20 0C 05
 4.880000 1  A0              Rx   d 8 3D 0F D1 46 13 7D A8 7A
 4.890000 1  C0              Rx   d 8 EA 32 A3 BF 00 00 00 00
 4.890000 1  1B0             Rx   d 4 F2 7F 26 A8
 4.900000 1  C0              Rx   d 8 A2 32 B3 87 00 00 00 00
 4.900000 1  1B0             Rx   d 4 F1 7F FA B7
 4.900000 1  D0              Rx   d 8 93 42 BD 00 30 EC 0B 06
 4.900000 1  A0              Rx   d 8 0C 0F 91 46 15 7D AA 7A
 4.910000 1  C0              Rx   d 8 99 32 C3 8E 00 00 00 00
 4.910000 1  1B0             Rx   d 4 F4 7F 1D C8
 4.920000 1  C0              Rx   d 8 94 32 D3 99 00 00 00 00
 4.920000 1  1B0             Rx   d 4 F3 7F F5 D7
 4.920000 1  D0              Rx   d 8 DA 42 BE 10 2D 5C 0B 07
 4.920000 1  A0              Rx   d 8 DE 0E A2 46 0F 7D AD 7A
 4.930000 1  C0              Rx   d 8 DB 32 E3 F0 00 00 00 00
 4.930000 1  1B0             Rx   d 4 EB 7F A9 E7
 4.940000 1  C0              Rx   d 8 BB 32 F3 E0 00 00 00 00
 4.940000 1  1B0             Rx   d 4 E9 7F F0 F7
 4.940000 1  D0              Rx   d 8 EE 02 B8 00 28 34 0B 08
 4.940000 1  A0              Rx   d 8 B5 0E E2 46 21 7D AA 7A
 4.950000 1  C0              Rx   d 8 DF 32 03 14 00 00 00 00
 4.950000 1  1B0             Rx   d 4 E8 7F F3 07
 4.960000 1  C0              Rx   d 8 AB 32 13 F0 00 00 00 00
 4.960000 1  1B0             Rx   d 4 EB 7F 22 18
 4.960000 1  D0              Rx   d 8 A0 42 B0 00 29 68 0B 09
 4.960000 1  A0              Rx   d 8 90 0E D3 46 21 7D 9F 7A
 4.970000 1  C0              Rx   d 8 C3 32 23 18 00 00 00 00
 4.970000 1  1B0             Rx   d 4 EF 7F 23 28
 4.980000 1  C0              Rx   d 8 D3 32 33 38 00 00 00 00
 4.980000 1  1B0             Rx   d 4 F0 7F 11 38
 4.980000 1  D0              Rx   d 8 6B 82 B1 30 2D 7C 0B 0A
 4.980000 1  A0              Rx   d 8 67 0E 9E 46 17 7D A3 7A
 4.990000 1  C0              Rx   d 8 AF 32 43 24 00 00 00 00
 4.990000 1  1B0             Rx   d 4 F5 7F 33 48
 5.000000 1  C0              Rx   d 8 CC 32 53 51 00 00 00 00
 5.000000 1  1B0             Rx   d 4 F5 7F FA 57
 5.000000 1  D0              Rx   d 8 9D 42 B5 00 00 0C 0B 0B
 5.000000 1  A0              Rx   d 8 39 0E 7C 46 12 7D A9 7A
 5.010000 1  C0              Rx   d 8 C9 32 63 5E 00 00 00 00
 5.010000 1  1B0             Rx   d 4 F0 7F D1 67
 5.020000 1  C0              Rx   d 8 CF 32 73 74 00 00 00 00
 5.020000 1  1B0             Rx   d 4 EE 7F ED 77
 5.020000 1  D0              Rx   d 8 CE 42 B2 00 00 A4 0A 0C
 5.020000 1  A0              Rx   d 8 0C 0E C8 46 17 7D A3 7A
 5.030000 1  C0              Rx   d 8 9D 32 83 52 00 00 00 00
 5.030000 1  1B0             Rx   d 4 EB 7F E0 87
 5.040000 1  C0              Rx   d 8 9B 32 93 60 00 00 00 00
 5.040000 1  1B0             Rx   d 4 EA 7F F7 97
 5.040000 1  D0              Rx   d 8 9D 42 A9 00 00 CC 0A 0D
 5.040000 1  A0              Rx   d 8 E6 0D EC 46 24 7D AF 7A
 5.050000 1  C0              Rx   d 8 C9 32 A3 9E 00 00 00 00
 5.050000 1  1B0             Rx   d 4 EA 7F FF A7
 5.060000 1  C0              Rx   d 8 DC 32 B3 C1 00 00 00 00
 5.060000 1  1B0             Rx   d 4 F1 7F 4B B8
 5.060000 1  D0              Rx   d 8 52 02 A7 00 00 FC 0A 0E
 5.060000 1  A0              Rx   d 8 B5 0D B8 46 15 7D AB 7A
 5.070000 1  C0              Rx   d 8 17 33 C3 0D 00 00 00 00
 5.070000 1  1B0             Rx   d 4 F4 7F 1B C8
 5.080000 1  C0              Rx   d 8 A7 32 D3 AC 00 00 00 00
 5.080000 1  1B0             Rx   d 4 F4 7F 02 D8
 5.080000 1  D0              Rx   d 8 65 42 AB 00 00 9C 0A 0F
 5.080000 1  A0              Rx   d 8 99 0D 94 46 10 7D A7 7A
 5.090000 1  C0              Rx   d 8 E8 32 E3 FD 00 00 00 00
 5.090000 1  1B0             Rx   d 4 F5 7F 07 E8
 5.100000 1  C0              Rx   d 8 90 32 F3 B5 00 00 00 00
 5.100000 1  1B0             Rx   d 4 F0 7F CF F7
 5.100000 1  D0              Rx   d 8 A5 02 AB 00 00 20 0A 00
 5.100000 1  A0              Rx   d 8 67 0D B1 46 0E 7D A2 7A
 5.110000 1  C0              Rx   d 8 CF 32 03 04 00 00 00 00
 5.110000 1  1B0             Rx   d 4 F0 7F 01 08
 5.120000 1  C0              Rx   d 8 A2 32 13 E7 00 00 00 00
 5.120000 1  1B0             Rx   d 4 E9 7F B5 17
 5.120000 1  D0              Rx   d 8 97 42 A3 00 00 1C 0A 01
 5.120000 1  A0              Rx   d 8 3F 0D CC 46 1E 7D AA 7A
 5.130000 1  C0              Rx   d 8 D3 32 23 28 00 00 00 00
 5.130000 1  1B0             Rx   d 4 E7 7F ED 27
 5.140000 1  C0              Rx   d 8 BE 32 33 23 00 00 00 00
 5.140000 1  1B0             Rx   d 4 EC 7F 38 38
 5.140000 1  D0              Rx   d 8 47 C2 9D 00 00 6C 0A 02
 5.140000 1  A0              Rx   d 8 19 0D D2 46 10 7D A1 7A
 5.150000 1  C0              Rx   d 8 9E 32 43 13 00 00 00 00
 5.150000 1  1B0             Rx   d 4 EF 7F 19 48
 5.160000 1  C0              Rx   d 8 FC 32 53 81 00 00 00 00
 5.160000 1  1B0             Rx   d 4 F5 7F 3B 58
 5.160000 1  D0              Rx   d 8 32 C2 A0 00 00 34 0A 03
 5.160000 1  A0              Rx   d 8 EB 0C 9D 46 04 7D AD 7A
 5.170000 1  C0              Rx   d 8 F1 32 63 86 00 00 00 00
 5.170000 1  1B0             Rx   d 4 F6 7F 0C 68
 5.180000 1  C0              Rx   d 8 AA 32 73 4F 00 00 00 00
 5.180000 1  1B0             Rx   d 4 F9 7F 1B 78
 5.180000 1  D0              Rx   d 8 6D C2 A2 00 00 C0 09 04
 5.180000 1  A0              Rx   d 8 BB 0C 64 46 05 7D A6 7A
 5.190000 1  C0              Rx   d 8 E4 32 83 99 00 00 00 00
 5.190000 1  1B0             Rx   d 4 F6 7F E2 87
 5.200000 1  C0              Rx   d 8 DC 32 93 A1 00 00 00 00
 5.200000 1  1B0             Rx   d 4 F2 7F D9 97
 5.200000 1  D0              Rx   d 8 7E C2 9C 00 00 8C 09 05
 5.200000 1  A0              Rx   d 8 8E 0C B5 46 13 7D 9D 7A
 5.210000 1  C0              Rx   d 8 CC 32 A3 A1 00 00 00 00
 5.210000 1  1B0             Rx   d 4 EC 7F CB A7
 5.220000 1  C0              Rx   d 8 97 32 B3 7C 00 00 00 00
 5.220000 1  1B0             Rx   d 4 E8 7F CE B7
 5.220000 1  D0              Rx   d 8 41 02 97 00 00 BC 09 06
 5.220000 1  A0              Rx   d 8 6E 0C DB 46 21 7D A7 7A
 5.230000 1  C0              Rx   d 8 AA 32 C3 9F 00 00 00 00
 5.230000 1  1B0             Rx   d 4 EC 7F 31 C8
 5.240000 1  C0              Rx   d 8 BE 32 D3 C3 00 00 00 00
 5.240000 1  1B0             Rx   d 4 EF 7F 1E D8
 5.240000 1  D0              Rx   d 8 0F 42 97 00 00 C8 09 07
 5.240000 1  A0              Rx   d 8 42 0C B0 46 0E 7D A2 7A
 5.250000 1  C0              Rx   d 8 AA 32 E3 BF 00 00 00 00
 5.250000 1  1B0             Rx   d 4 F5 7F 34 E8
 5.260000 1  C0              Rx   d 8 90 32 F3 B5 00 00 00 00
 5.260000 1  1B0             Rx   d 4 F7 7F 1C F8
 5.260000 1  D0              Rx   d 8 37 C2 99 00 00 60 09 08
 5.260000 1  A0              Rx   d 8 12 0C 86 46 09 7D A7 7A
 5.270000 1  C0              Rx   d 8 CC 32 03 01 00 00 00 00
 5.270000 1  1B0             Rx   d 4 FA 7F 18 08
 5.280000 1  C0              Rx   d 8 DB 32 13 20 00 00 00 00
 5.280000 1  1B0             Rx   d 4 F3 7F C0 17
 5.280000 1  D0              Rx   d 8 63 C2 96 00 00 00 09 09
 5.280000 1  A0              Rx   d 8 F1 0B 89 46 05 7D B2 7A
 5.290000 1  C0              Rx   d 8 B4 32 23 09 00 00 00 00
 5.290000 1  1B0             Rx   d 4 F1 7F EB 27
 5.300000 1  C0              Rx   d 8 E0 32 33 45 00 00 00 00
 5.300000 1  1B0             Rx   d 4 ED 7F D6 37
 5.300000 1  D0              Rx   d 8 37 C2 8F 00 00 20 09 0A
 5.300000 1  A0              Rx   d 8 C8 0B E2 46 17 7D AE 7A
 5.310000 1  C0              Rx   d 8 73 32 43 E8 00 00 00 00
 5.310000 1  1B0             Rx   d 4 E9 7F D8 47
 5.320000 1  C0              Rx   d 8 A7 32 53 2C 00 00 00 00
 5.320000 1  1B0             Rx   d 4 EE 7F 34 58
 5.320000 1  D0              Rx   d 8 F7 81 8C 00 00 4C 09 0B
 5.320000 1  A0              Rx   d 8 94 0B E7 46 14 7D A6 7A
 5.330000 1  C0              Rx   d 8 7F 32 63 14 00 00 00 00
 5.330000 1  1B0             Rx   d 4 F1 7F 1D 68
 5.340000 1  C0              Rx   d 8 A4 32 73 49 00 00 00 00
 5.340000 1  1B0             Rx   d 4 F3 7F 14 78
 5.340000 1  D0              Rx   d 8 00 82 90 00 00 EC 08 0C
 5.340000 1  A0              Rx   d 8 6C 0B 94 46 0E 7D A7 7A
 5.350000 1  C0              Rx   d 8 D1 32 83 86 00 00 00 00
 5.350000 1  1B0             Rx   d 4 F7 7F 2C 88
 5.360000 1  C0              Rx   d 8 0E 33 93 D4 00 00 00 00
 5.360000 1  1B0             Rx   d 4 F9 7F 10 98
 5.360000 1  D0              Rx   d 8 34 02 8F 10 21 80 08 0D
 5.360000 1  A0              Rx   d 8 3A 0B 72 46 FC 7C A5 7A
 5.370000 1  C0              Rx   d 8 BE 32 A3 93 00 00 00 00
 5.370000 1  1B0             Rx   d 4 F5 7F D4 A7
 5.380000 1  C0              Rx   d 8 01 33 B3 E7 00 00 00 00
 5.380000 1  1B0             Rx   d 4 F3 7F EB B7
 5.380000 1  D0              Rx   d 8 2C C2 87 20 1E 78 08 0E
 5.380000 1  A0              Rx   d 8 19 0B A2 46 06 7D B2 7A
 5.390000 1  C0              Rx   d 8 AA 32 C3 9F 00 00 00 00
 5.390000 1  1B0             Rx   d 4 EF 7F D8 C7
 5.400000 1  C0              Rx   d 8 DD 32 D3 E2 00 00 00 00
 5.400000 1  1B0             Rx   d 4 ED 7F EF D7
 5.400000 1  D0              Rx   d 8 E9 81 83 80 1F B4 08 0F
 5.400000 1  A0              Rx   d 8 E8 0A CD 46 14 7D A7 7A
 5.410000 1  C0              Rx   d 8 D3 32 E3 E8 00 00 00 00
 5.410000 1  1B0             Rx   d 4 EE 7F 07 E8
 5.420000 1  C0              Rx   d 8 00 33 F3 26 00 00 00 00
 5.420000 1  1B0             Rx   d 4 F0 7F 1D F8
 5.420000 1  D0              Rx   d 8 D5 C1 86 20 22 88 08 00
 5.420000 1  A0              Rx   d 8 C9 0A C3 46 06 7D AC 7A
 5.430000 1  C0              Rx   d 8 C2 32 03 F7 00 00 00 00
 5.430000 1  1B0             Rx   d 4 F2 7F 13 08
 5.440000 1  C0              Rx   d 8 B6 32 13 FB 00 00 00 00
 5.440000 1  1B0             Rx   d 4 F8 7F 37 18
 5.440000 1  D0              Rx   d 8 04 02 88 50 20 18 08 01
 5.440000 1  A0              Rx   d 8 95 0A 7A 46 07 7D A1 7A
 5.450000 1  C0              Rx   d 8 7C 32 23 D1 00 00 00 00
 5.450000 1  1B0             Rx   d 4 F8 7F FF 27
 5.460000 1  C0              Rx   d 8 EC 32 33 51 00 00 00 00
 5.460000 1  1B0             Rx   d 4 F6 7F F4 37
 5.460000 1  D0              Rx   d 8 14 C2 82 90 1C E4 07 02
 5.460000 1  A0              Rx   d 8 65 0A 91 46 0C 7D A7 7A
 5.470000 1  C0              Rx   d 8 CB 32 43 40 00 00 00 00
 5.470000 1  1B0             Rx   d 4 F3 7F DF 47
 5.480000 1  C0              Rx   d 8 9D 32 53 22 00 00 00 00
 5.480000 1  1B0             Rx   d 4 F2 7F F2 57
 5.480000 1  D0              Rx   d 8 DF 81 7C 70 1C 14 08 03
 5.480000 1  A0              Rx   d 8 44 0A D1 46 08 7D A7 7A
 5.490000 1  C0              Rx   d 8 CA 32 63 5F 00 00 00 00
 5.490000 1  1B0             Rx   d 4 EB 7F C1 67
 5.500000 1  C0              Rx   d 8 EC 32 73 91 00 00 00 00
 5.500000 1  1B0             Rx   d 4 EF 7F 20 78
 5.500000 1  D0              Rx   d 8 B2 81 7B 50 1F 08 08 04
 5.500000 1  A0              Rx   d 8 1F 0A CD 46 15 7D AC 7A
 5.510000 1  C0              Rx   d 8 7C 32 83 31 00 00 00 00
 5.510000 1  1B0             Rx   d 4 F1 7F 16 88
 5.520000 1  C0              Rx   d 8 C9 32 93 8E 00 00 00 00
 5.520000 1  1B0             Rx   d 4 F6 7F 34 98
 5.520000 1  D0              Rx   d 8 D0 81 7D 30 1F AC 07 05
 5.520000 1  A0              Rx   d 8 EB 09 A2 46 11 7D B2 7A
 5.530000 1  C0              Rx   d 8 AF 32 A3 84 00 00 00 00
 5.530000 1  1B0             Rx   d 4 F8 7F 13 A8
 5.540000 1  C0              Rx   d 8 CD 32 B3 B2 00 00 00 00
 5.540000 1  1B0             Rx   d 4 FB 7F 1F B8
 5.540000 1  D0              Rx   d 8 F3 41 7B 70 1B 58 07 06
 5.540000 1  A0              Rx   d 8 BF 09 86 46 FF 7C A9 7A
 5.550000 1  C0              Rx   d 8 DF 32 C3 D4 00 00 00 00
 5.550000 1  1B0             Rx   d 4 F9 7F F0 C7
 5.560000 1  C0              Rx   d 8 CC 32 D3 D1 00 00 00 00
 5.560000 1  1B0             Rx   d 4 F4 7F CB D7
 5.560000 1  D0              Rx   d 8 D4 01 75 F0 19 64 07 07
 5.560000 1  A0              Rx   d 8 A1 09 87 46 0F 7D A5 7A
 5.570000 1  C0              Rx   d 8 A1 32 E3 B6 00 00 00 00
 5.570000 1  1B0             Rx   d 4 F1 7F E2 E7
 5.580000 1  C0              Rx   d 8 CB 32 F3 F0 00 00 00 00
 5.580000 1  1B0             Rx   d 4 EC 7F C9 F7
 5.580000 1  D0              Rx   d 8 97 01 73 50 1C 88 07 08
 5.580000 1  A0              Rx   d 8 68 09 C5 46 06 7D 9B 7A
 5.590000 1  C0              Rx   d 8 A6 32 03 DB 00 00 00 00
 5.590000 1  1B0             Rx   d 4 EF 7F 23 08
 5.600000 1  C0              Rx   d 8 C2 32 13 07 00 00 00 00
 5.600000 1  1B0             Rx   d 4 F0 7F 09 18
 5.600000 1  D0              Rx   d 8 9E 81 74 C0 1D 40 07 09
 5.600000 1  A0              Rx   d 8 48 09 B9 46 03 7D A3 7A
 5.610000 1  C0              Rx   d 8 A3 32 23 F8 00 00 00 00
 5.610000 1  1B0             Rx   d 4 F6 7F 3C 28
 5.620000 1  C0              Rx   d 8 89 32 33 EE 00 00 00 00
 5.620000 1  1B0             Rx   d 4 FC 7F 3D 38
 5.620000 1  D0              Rx   d 8 C9 C1 74 D0 1A E8 06 0A
 5.620000 1  A0              Rx   d 8 17 09 81 46 07 7D A7 7A
 5.630000 1  C0              Rx   d 8 A1 32 43 16 00 00 00 00
 5.630000 1  1B0             Rx   d 4 FB 7F F2 47
 5.640000 1  C0              Rx   d 8 AC 32 53 31 00 00 00 00
 5.640000 1  1B0             Rx   d 4 FB 7F 05 58
 5.640000 1  D0              Rx   d 8 C1 41 6E 10 18 D8 06 0B
 5.640000 1  A0              Rx   d 8 EB 08 78 46 02 7D A4 7A
 5.650000 1  C0              Rx   d 8 96 32 63 2B 00 00 00 00
 5.650000 1  1B0             Rx   d 4 F6 7F D1 67
 5.660000 1  C0              Rx   d 8 A3 32 73 48 00 00 00 00
 5.660000 1  1B0             Rx   d 4 F4 7F EC 77
 5.660000 1  D0              Rx   d 8 8C 41 6A 40 19 FC 06 0C
 5.660000 1  A0              Rx   d 8 C7 08 B0 46 0F 7D AA 7A
 5.670000 1  C0              Rx   d 8 03 33 83 B9 00 00 00 00
 5.670000 1  1B0             Rx   d 4 ED 7F B9 87
 5.680000 1  C0              Rx   d 8 AE 32 93 73 00 00 00 00
 5.680000 1  1B0             Rx   d 4 ED 7F FB 97
 5.680000 1  D0              Rx   d 8 72 01 6C 50 1B D4 06 0D
 5.680000 1  A0              Rx   d 8 9A 08 A9 46 0D 7D A5 7A
 5.690000 1  C0              Rx   d 8 B0 32 A3 85 00 00 00 00
 5.690000 1  1B0             Rx   d 4 F4 7F 47 A8
 5.700000 1  C0              Rx   d 8 D6 32 B3 BB 00 00 00 00
 5.700000 1  1B0             Rx   d 4 F8 7F 2A B8
 5.700000 1  D0              Rx   d 8 96 C1 6B D0 19 84 06 0E
 5.700000 1  A0              Rx   d 8 78 08 73 46 0E 7D A5 7A
 5.710000 1  C0              Rx   d 8 E8 32 C3 DD 00 00 00 00
 5.710000 1  1B0             Rx   d 4 F9 7F 08 C8
 5.720000 1  C0              Rx   d 8 A2 32 D3 A7 00 00 00 00
 5.720000 1  1B0             Rx   d 4 FB 7F 10 D8
 5.720000 1  D0              Rx   d 8 A7 41 68 90 16 40 06 0F
 5.720000 1  A0              Rx   d 8 47 08 66 46 F8 7C 9E 7A
 5.730000 1  C0              Rx   d 8 BB 32 E3 D0 00 00 00 00
